 (000.000000)  can0  1CFF18FE   [8]  61 06 00 11 18 FF 1A FE
 (000.015657)  can0  18F08880   [8]  7D 7D 7D 7D 00 00 00 00
 (000.019399)  can0  18FAB580   [8]  10 40 00 00 00 00 00 00
 (000.019401)  can0  18FF1181   [8]  C8 64 64 02 00 00 00 00
 (000.030360)  can0  1CFF18FE   [8]  35 00 00 6B 42 E6 00 00
 (000.030362)  can0  18FF1184   [8]  C8 64 64 02 00 00 00 00
 (000.033852)  can0  18FF1084   [8]  70 17 00 00 FF 24 57 5A
 (000.035715)  can0  0CFF1D80   [8]  04 00 00 00 00 00 00 00
 (000.038342)  can0  1CFF18FE   [8]  31 00 00 62 43 48 00 00
 (000.045763)  can0  1CFF18FE   [8]  61 06 00 14 00 00 01 2D
 (000.065721)  can0  18F08880   [8]  7D 7D 7D 7D 00 00 00 00
 (000.065723)  can0  18FF1081   [8]  6B 17 00 00 FF 24 57 5A
 (000.077872)  can0  18F08780   [8]  01 00 4B 7E 7D 00 00 00
 (000.080431)  can0  1CFF18FE   [8]  35 00 00 6C C2 0C 00 00
 (000.085796)  can0  0CFF1D80   [8]  04 00 00 00 00 00 00 00
 (000.088439)  can0  1CFF18FE   [8]  31 00 00 63 C2 20 00 00
 (000.100738)  can0  1CFF18FE   [8]  61 06 00 12 00 00 06 1B
 (000.115393)  can0  18F08880   [8]  7D 7D 7D 7D 00 00 00 00
 (000.119410)  can0  18FAB580   [8]  10 40 00 00 00 00 00 00
 (000.120400)  can0  18FF1181   [8]  C8 64 64 02 00 00 00 00
 (000.130371)  can0  1CFF18FE   [8]  35 00 00 6D 42 E6 00 00
 (000.130373)  can0  18FF1184   [8]  C8 64 64 02 00 00 00 00
 (000.133909)  can0  18FF1084   [8]  80 17 00 00 FF 24 57 5A
 (000.136703)  can0  0CFF1D80   [8]  04 00 00 00 00 00 00 00
 (000.138447)  can0  1CFF18FE   [8]  31 00 00 64 43 48 00 00
 (000.146757)  can0  1CFF18FE   [8]  61 06 00 15 00 00 00 87
 (000.165862)  can0  18F08880   [8]  7D 7D 7D 7D 00 00 00 00
 (000.165864)  can0  18FF1081   [8]  6B 17 00 00 FF 24 57 5A
 (000.177672)  can0  18F08780   [8]  01 33 4B 7E 7D 00 00 00
 (000.180385)  can0  1CFF18FE   [8]  35 00 00 6E 00 00 00 07
 (000.186873)  can0  0CFF1D80   [8]  04 00 00 00 00 00 00 00
 (000.188341)  can0  1CFF18FE   [8]  31 00 00 65 C2 20 00 00
 (000.201716)  can0  1CFF18FE   [8]  61 06 00 13 00 00 03 E8
 (000.215390)  can0  18F08880   [8]  7D 7D 7D 7D 00 00 00 00
 (000.219390)  can0  18FAB580   [8]  10 40 00 00 00 00 00 00
 (000.220441)  can0  18FF1181   [8]  C8 64 64 02 00 00 00 00
 (000.230416)  can0  1CFF18FE   [8]  35 00 00 6F 00 00 00 07
 (000.230417)  can0  18FF1184   [8]  C8 64 64 02 00 00 00 00
 (000.233840)  can0  18FF1084   [8]  73 17 00 00 FF 24 57 5A
 (000.236738)  can0  0CFF1D80   [8]  04 00 00 00 00 00 00 00
 (000.238402)  can0  1CFF18FE   [8]  31 00 00 66 00 00 00 08
 (000.248126)  can0  1CFF18FE   [8]  61 06 00 16 00 00 01 2D
 (000.260712)  can0  18FF1280   [8]  01 00 00 00 00 00 00 00
 (000.265874)  can0  18F08880   [8]  7D 7D 7D 7D 00 00 00 00
 (000.265876)  can0  18FF1081   [8]  6B 17 00 00 FF 24 57 5A
 (000.277682)  can0  18F08780   [8]  01 09 4B 7E 7D 00 00 00
 (000.280375)  can0  1CFF18FE   [8]  35 00 00 70 00 00 00 08
 (000.286849)  can0  0CFF1D80   [8]  04 00 00 00 00 00 00 00
 (000.288371)  can0  1CFF18FE   [8]  31 00 00 67 40 C0 00 00
 (000.303467)  can0  1CFF18FE   [8]  61 06 00 14 00 00 01 2D
 (000.315463)  can0  18F08880   [8]  7D 7D 7D 7D 00 00 00 00
 (000.319677)  can0  18FAB580   [8]  10 40 00 00 00 00 00 00
 (000.319678)  can0  18FF1181   [8]  C8 64 64 02 00 00 00 00
 (000.330358)  can0  1CFF18FE   [8]  35 00 00 71 00 00 00 08
 (000.330359)  can0  18FF1184   [8]  C8 64 64 02 00 00 00 00
 (000.333837)  can0  18FF1084   [8]  75 17 00 00 FF 24 57 5A
 (000.336830)  can0  0CFF1D80   [8]  04 00 00 00 00 00 00 00
 (000.338339)  can0  1CFF18FE   [8]  31 00 00 68 42 DC 00 00
 (000.348347)  can0  1CFF18FE   [8]  61 06 00 17 00 00 07 D0
 (000.365688)  can0  18F08880   [8]  7D 7D 7D 7D 00 00 00 00
 (000.366843)  can0  18FF1081   [8]  6A 17 00 00 FF 24 57 5A
 (000.377479)  can0  18F08780   [8]  01 10 4B 7E 7D 00 00 00
 (000.380335)  can0  1CFF18FE   [8]  35 00 00 72 00 00 00 00
 (000.386652)  can0  0CFF1D80   [8]  04 00 00 00 00 00 00 00
 (000.388672)  can0  1CFF18FE   [8]  31 00 00 69 42 FA 00 00
 (000.404494)  can0  1CFF18FE   [8]  61 06 00 15 00 00 00 87
 (000.415427)  can0  18F08880   [8]  7D 7D 7D 7D 00 00 00 00
 (000.419681)  can0  18FAB580   [8]  10 40 00 00 00 00 00 00
 (000.419683)  can0  18FF1181   [8]  C8 64 64 02 00 00 00 00
 (000.430363)  can0  1CFF18FE   [8]  35 00 00 73 00 00 05 21
 (000.430365)  can0  18FF1184   [8]  C8 64 64 02 00 00 00 00
 (000.433850)  can0  18FF1084   [8]  72 17 00 00 FF 24 57 5A
 (000.436824)  can0  0CFF1D80   [8]  04 00 00 00 00 00 00 00
 (000.438392)  can0  1CFF18FE   [8]  31 00 00 6A C2 0C 00 00
 (000.449696)  can0  1CFF18FE   [8]  61 07 00 00 00 00 00 05
 (000.465697)  can0  18F08880   [8]  7D 7D 7D 7D 00 00 00 00
 (000.466874)  can0  18FF1081   [8]  6B 17 00 00 FF 24 57 5A
 (000.477490)  can0  18F08780   [8]  01 06 4B 7E 7D 00 00 00
 (000.480359)  can0  1CFF18FE   [8]  35 00 00 74 00 00 05 15
 (000.486642)  can0  0CFF1D80   [8]  04 00 00 00 00 00 00 00
 (000.488676)  can0  1CFF18FE   [8]  31 00 00 6B 42 E6 00 00
 (000.506179)  can0  1CFF18FE   [8]  61 06 00 16 00 00 01 2D
 (000.515439)  can0  18F08880   [8]  7D 7D 7D 7D 00 00 00 00
 (000.519814)  can0  18FAB580   [8]  10 40 00 00 00 00 00 00
 (000.519816)  can0  18FF1181   [8]  C8 64 64 02 00 00 00 00
 (000.530375)  can0  1CFF18FE   [8]  35 00 00 75 00 00 05 22
 (000.530378)  can0  18FF1184   [8]  C8 64 64 02 00 00 00 00
 (000.533842)  can0  18FF1084   [8]  7D 17 01 00 FF 24 57 5A
 (000.536636)  can0  0CFF1D80   [8]  04 00 00 00 00 00 00 00
 (000.538724)  can0  1CFF18FE   [8]  31 00 00 6C C2 0C 00 00
 (000.550392)  can0  1CFF18FE   [8]  61 07 00 01 42 01 D7 06
 (000.565377)  can0  18F08880   [8]  7D 7D 7D 7D 00 00 00 00
 (000.566647)  can0  18FF1081   [8]  69 17 00 00 FF 24 57 5A
 (000.577486)  can0  18F08780   [8]  01 29 4B 7E 7D 00 00 00
 (000.580644)  can0  1CFF18FE   [8]  35 00 00 76 00 00 05 14
 (000.586391)  can0  0CFF1D80   [8]  04 00 00 00 00 00 00 00
 (000.588796)  can0  1CFF18FE   [8]  31 00 00 6D 42 E6 00 00
 (000.607283)  can0  1CFF18FE   [8]  61 06 00 17 00 00 07 D0
 (000.615422)  can0  18F08880   [8]  7D 7D 7D 7D 00 00 00 00
 (000.619848)  can0  18FAB580   [8]  10 40 00 00 00 00 00 00
 (000.619849)  can0  18FF1181   [8]  C8 64 64 02 00 00 00 00
 (000.630602)  can0  1CFF18FE   [8]  35 00 00 77 00 00 05 35
 (000.630605)  can0  18FF1184   [8]  C8 64 64 02 00 00 00 00
 (000.633676)  can0  18FF1084   [8]  79 17 00 00 FF 24 57 5A
 (000.636820)  can0  0CFF1D80   [8]  04 00 00 00 00 00 00 00
 (000.638359)  can0  1CFF18FE   [8]  31 00 00 6E 00 00 00 07
 (000.652047)  can0  1CFF18FE   [8]  61 07 00 02 41 F8 F0 DD
 (000.665685)  can0  18F08880   [8]  7D 7D 7D 7D 00 00 00 00
 (000.666834)  can0  18FF1081   [8]  69 17 00 00 FF 24 57 5A
 (000.677700)  can0  18F08780   [8]  01 1C 4B 7D 7D 00 00 00
 (000.680650)  can0  1CFF18FE   [8]  35 00 00 78 00 00 05 36
 (000.687148)  can0  0CFF1D80   [8]  04 00 00 00 00 00 00 00
 (000.688519)  can0  1CFF18FE   [8]  31 00 00 6F 00 00 00 07
 (000.708592)  can0  1CFF18FE   [8]  61 07 00 00 00 00 00 05
 (000.715693)  can0  18F08880   [8]  7D 7D 7D 7D 00 00 00 00
 (000.719418)  can0  18FAB580   [8]  10 40 00 00 00 00 00 00
 (000.719420)  can0  18FF1181   [8]  C8 64 64 02 00 00 00 00
 (000.730607)  can0  1CFF18FE   [8]  35 00 00 79 00 00 13 88
 (000.730609)  can0  18FF1184   [8]  C8 64 64 02 00 00 00 00
 (000.733680)  can0  18FF1084   [8]  77 17 00 00 FF 24 57 5A
 (000.736462)  can0  0CFF1D80   [8]  04 00 00 00 00 00 00 00
 (000.738381)  can0  1CFF18FE   [8]  31 00 00 70 00 00 00 08
 (000.752361)  can0  1CFF18FE   [8]  61 07 00 03 00 00 00 00
 (000.760445)  can0  18FF1280   [8]  01 00 00 00 00 00 00 00
 (000.765743)  can0  18F08880   [8]  7D 7D 7D 7D 00 00 00 00
 (000.765745)  can0  18FF1081   [8]  69 17 00 00 FF 24 57 5A
 (000.777770)  can0  18F08780   [8]  01 16 4B 7E 7D 00 00 00
 (000.780340)  can0  1CFF18FE   [8]  35 00 00 7A 00 00 4E 20
 (000.786785)  can0  0CFF1D80   [8]  04 00 00 00 00 00 00 00
 (000.788356)  can0  1CFF18FE   [8]  31 00 00 71 00 00 00 08
 (000.809969)  can0  1CFF18FE   [8]  61 07 00 01 41 EA 28 FD
 (000.815661)  can0  18F08880   [8]  7D 7D 7D 7D 00 00 00 00
 (000.819409)  can0  18FAB580   [8]  10 40 00 00 00 00 00 00
 (000.819411)  can0  18FF1181   [8]  C8 64 64 02 00 00 00 00
 (000.830718)  can0  1CFF18FE   [8]  35 00 00 7B 44 4D 00 00
 (000.830720)  can0  18FF1184   [8]  C8 64 64 02 00 00 00 00
 (000.833383)  can0  18FF1084   [8]  80 17 00 00 FF 24 57 5A
 (000.836364)  can0  0CFF1D80   [8]  04 00 00 00 00 00 00 00
 (000.838335)  can0  1CFF18FE   [8]  31 00 00 72 00 00 00 00
 (000.853570)  can0  1CFF18FE   [8]  61 07 00 04 00 00 00 00
 (000.865725)  can0  18F08880   [8]  7D 7D 7D 7D 00 00 00 00
 (000.865727)  can0  18FF1081   [8]  6B 17 00 00 FF 24 57 5A
 (000.877727)  can0  18F08780   [8]  01 33 4B 7D 7D 00 00 00
 (000.880341)  can0  1CFF18FE   [8]  35 00 00 7C 00 00 00 02
 (000.886781)  can0  0CFF1D80   [8]  04 00 00 00 00 00 00 00
 (000.888399)  can0  1CFF18FE   [8]  31 00 00 73 00 00 05 21
 (000.910679)  can0  1CFF18FE   [8]  61 07 00 02 41 DA 5D 3D
 (000.915445)  can0  18F08880   [8]  7D 7D 7D 7D 00 00 00 00
 (000.919383)  can0  18FAB580   [8]  10 40 00 00 00 00 00 00
 (000.920376)  can0  18FF1181   [8]  C8 64 64 02 00 00 00 00
 (000.930344)  can0  1CFF18FE   [8]  35 00 00 7D FF FF FF D8
 (000.931607)  can0  18FF1184   [8]  C8 64 64 02 00 00 00 00
 (000.934116)  can0  18FF1084   [8]  7C 17 00 00 FF 24 57 5A
 (000.936724)  can0  0CFF1D80   [8]  04 00 00 00 00 00 00 00
 (000.938459)  can0  1CFF18FE   [8]  31 00 00 74 00 00 05 15
 (000.954641)  can0  1CFF18FE   [8]  61 06 00 00 01 38 3F 7A
 (000.965866)  can0  18F08880   [8]  7D 7D 7D 7D 00 00 00 00
 (000.965868)  can0  18FF1081   [8]  69 17 00 00 FF 24 57 5A
 (000.977891)  can0  18F08780   [8]  01 26 4B 7E 7D 00 00 00
 (000.980621)  can0  1CFF18FE   [8]  35 00 00 7E 00 00 00 04
 (000.986698)  can0  0CFF1D80   [8]  04 00 00 00 00 00 00 00
 (000.988573)  can0  1CFF18FE   [8]  31 00 00 75 00 00 05 22
 (001.011255)  can0  1CFF18FE   [8]  61 07 00 03 00 00 00 00
 (001.015392)  can0  18F08880   [8]  7D 7D 7D 7D 00 00 00 00
 (001.019341)  can0  18FAB580   [8]  10 40 00 00 00 00 00 00
 (001.020409)  can0  18FF1181   [8]  C8 64 64 02 00 00 00 00
 (001.030784)  can0  1CFF18FE   [8]  35 00 00 7F 00 00 00 10
 (001.030786)  can0  18FF1184   [8]  C8 64 64 02 00 00 00 00
 (001.033813)  can0  18FF1084   [8]  74 17 00 00 FF 24 57 5A
 (001.036717)  can0  0CFF1D80   [8]  04 00 00 00 00 00 00 00
 (001.038380)  can0  1CFF18FE   [8]  31 00 00 76 00 00 05 14
 (001.055736)  can0  1CFF18FE   [8]  61 06 00 01 00 00 00 C9
 (001.065834)  can0  18F08880   [8]  7D 7D 7D 7D 00 00 00 00
 (001.065836)  can0  18FF1081   [8]  6B 17 00 00 FF 24 57 5A
 (001.077886)  can0  18F08780   [8]  01 0C 4B 7E 7D 00 00 00
 (001.080638)  can0  1CFF18FE   [8]  35 00 00 80 00 00 00 00
 (001.086696)  can0  0CFF1D80   [8]  04 00 00 00 00 00 00 00
 (001.088534)  can0  1CFF18FE   [8]  31 00 00 77 00 00 05 35
 (001.112645)  can0  1CFF18FE   [8]  61 07 00 04 00 00 00 00
 (001.115476)  can0  18F08880   [8]  7D 7D 7D 7D 00 00 00 00
 (001.119687)  can0  18FAB580   [8]  10 40 00 00 00 00 00 00
 (001.119689)  can0  18FF1181   [8]  C8 64 64 02 00 00 00 00
 (001.130843)  can0  1CFF18FE   [8]  35 00 00 81 00 00 00 02
 (001.130845)  can0  18FF1184   [8]  C8 64 64 02 00 00 00 00
 (001.133845)  can0  18FF1084   [8]  7C 17 00 00 FF 24 57 5A
 (001.136852)  can0  0CFF1D80   [8]  04 00 00 00 00 00 00 00
 (001.138344)  can0  1CFF18FE   [8]  31 00 00 78 00 00 05 36
 (001.156169)  can0  1CFF18FE   [8]  61 06 00 02 65 2D 7B 1C
 (001.165678)  can0  18F08880   [8]  7D 7D 7D 7D 00 00 00 00
 (001.166837)  can0  18FF1081   [8]  6B 17 00 00 FF 24 57 5A
 (001.177665)  can0  18F08780   [8]  01 26 4B 7D 7D 00 00 00
 (001.180341)  can0  1CFF18FE   [8]  35 00 00 82 00 00 00 00
 (001.186403)  can0  0CFF1D80   [8]  04 00 00 00 00 00 00 00
 (001.188775)  can0  1CFF18FE   [8]  31 00 00 79 00 00 13 88
 (001.213473)  can0  1CFF18FE   [8]  61 06 00 00 01 38 3F 7A
 (001.215436)  can0  18F08880   [8]  7D 7D 7D 7D 00 00 00 00
 (001.219712)  can0  18FAB580   [8]  10 40 00 00 00 00 00 00
 (001.219714)  can0  18FF1181   [8]  C8 64 64 02 00 00 00 00
 (001.230620)  can0  1CFF18FE   [8]  35 00 00 83 00 00 38 64
 (001.231790)  can0  18FF1184   [8]  C8 64 64 02 00 00 00 00
 (001.233385)  can0  18FF1084   [8]  70 17 00 00 FF 24 57 5A
 (001.236809)  can0  0CFF1D80   [8]  04 00 00 00 00 00 00 00
 (001.238414)  can0  1CFF18FE   [8]  31 00 00 7A 00 00 4E 20
 (001.257542)  can0  1CFF18FE   [8]  61 06 00 03 00 00 00 06
 (001.260800)  can0  18FF1280   [8]  01 00 00 00 00 00 00 00
 (001.265692)  can0  18F08880   [8]  7D 7D 7D 7D 00 00 00 00
 (001.266847)  can0  18FF1081   [8]  6B 17 00 00 FF 24 57 5A
 (001.277644)  can0  18F08780   [8]  01 00 4B 7D 7D 00 00 00
 (001.280401)  can0  1CFF18FE   [8]  35 00 00 84 00 00 00 01
 (001.286371)  can0  0CFF1D80   [8]  04 00 00 00 00 00 00 00
 (001.288704)  can0  1CFF18FE   [8]  31 00 00 7B 44 4D 00 00
 (001.315050)  can0  1CFF18FE   [8]  61 06 00 01 00 00 00 C9
 (001.315051)  can0  18F08880   [8]  7D 7D 7D 7D 00 00 00 00
 (001.319814)  can0  18FAB580   [8]  10 40 00 00 00 00 00 00
 (001.319817)  can0  18FF1181   [8]  C8 64 64 02 00 00 00 00
 (001.330692)  can0  1CFF18FE   [8]  35 00 00 85 00 00 13 88
 (001.331797)  can0  18FF1184   [8]  C8 64 64 02 00 00 00 00
 (001.333384)  can0  18FF1084   [8]  74 17 00 00 FF 24 57 5A
 (001.336790)  can0  0CFF1D80   [8]  04 00 00 00 00 00 00 00
 (001.338392)  can0  1CFF18FE   [8]  31 00 00 7C 00 00 00 02
 (001.358677)  can0  1CFF18FE   [8]  61 06 00 04 00 00 00 01
 (001.365675)  can0  18F08880   [8]  7D 7D 7D 7D 00 00 00 00
 (001.366834)  can0  18FF1081   [8]  6B 17 00 00 FF 24 57 5A
 (001.377707)  can0  18F08780   [8]  01 0C 4B 7E 7D 00 00 00
 (001.380414)  can0  1CFF18FE   [8]  35 00 00 86 80 5B E0 00
 (001.386374)  can0  0CFF1D80   [8]  04 00 00 00 00 00 00 00
 (001.388760)  can0  1CFF18FE   [8]  31 00 00 7D FF FF FF D8
 (001.415138)  can0  1CFF18FE   [8]  61 06 00 02 65 2D 7B 1C
 (001.415140)  can0  18F08880   [8]  7D 7D 7D 7D 00 00 00 00
 (001.419690)  can0  18FAB580   [8]  10 40 00 00 00 00 00 00
 (001.419692)  can0  18FF1181   [8]  C8 64 64 02 00 00 00 00
 (001.430614)  can0  1CFF18FE   [8]  35 00 00 87 81 82 83 84
 (001.431802)  can0  18FF1184   [8]  C8 64 64 02 00 00 00 00
 (001.433373)  can0  18FF1084   [8]  78 17 00 00 FF 24 57 5A
 (001.436796)  can0  0CFF1D80   [8]  04 00 00 00 00 00 00 00
 (001.438397)  can0  1CFF18FE   [8]  31 00 00 7E 00 00 00 00
 (001.459905)  can0  1CFF18FE   [8]  61 06 00 05 00 00 00 4B
 (001.465679)  can0  18F08880   [8]  7D 7D 7D 7D 00 00 00 00
 (001.466841)  can0  18FF1081   [8]  69 17 00 00 FF 24 57 5A
 (001.477701)  can0  18F08780   [8]  01 19 4B 7E 7D 00 00 00
 (001.480392)  can0  1CFF18FE   [8]  35 00 00 88 87 00 88 00
 (001.486375)  can0  0CFF1D80   [8]  04 00 00 00 00 00 00 00
 (001.488745)  can0  1CFF18FE   [8]  31 00 00 7F 00 00 00 10
 (001.515492)  can0  18F08880   [8]  7D 7D 7D 7D 00 00 00 00
 (001.515493)  can0  1CFF18FE   [8]  61 06 00 03 00 00 00 06
 (001.519848)  can0  18FAB580   [8]  10 40 00 00 00 00 00 00
 (001.519849)  can0  18FF1181   [8]  C8 64 64 02 00 00 00 00
 (001.530607)  can0  1CFF18FE   [8]  35 00 00 89 89 00 8A 00
 (001.531815)  can0  18FF1184   [8]  C8 64 64 02 00 00 00 00
 (001.533392)  can0  18FF1084   [8]  75 17 00 00 FF 24 57 5A
 (001.536838)  can0  0CFF1D80   [8]  04 00 00 00 00 00 00 00
 (001.538391)  can0  1CFF18FE   [8]  31 00 00 80 00 00 00 00
 (001.561333)  can0  1CFF18FE   [8]  61 06 00 06 00 00 03 E8
 (001.565699)  can0  18F08880   [8]  7D 7D 7D 7D 00 00 00 00
 (001.566880)  can0  18FF1081   [8]  69 17 00 00 FF 24 57 5A
 (001.577700)  can0  18F08780   [8]  01 10 4B 7E 7D 00 00 00
 (001.580442)  can0  1CFF18FE   [8]  35 00 00 8A 00 00 0B B8
 (001.586393)  can0  0CFF1D80   [8]  04 00 00 00 00 00 00 00
 (001.588758)  can0  1CFF18FE   [8]  31 00 00 81 00 00 00 02
 (001.615478)  can0  18F08880   [8]  7D 7D 7D 7D 00 00 00 00
 (001.618157)  can0  1CFF18FE   [8]  61 06 00 04 00 00 00 01
 (001.620368)  can0  18FAB580   [8]  10 40 00 00 00 00 00 00
 (001.621400)  can0  18FF1181   [8]  C8 64 64 02 00 00 00 00
 (001.630386)  can0  1CFF18FE   [8]  35 00 00 8B 00 0D BB A0
 (001.631677)  can0  18FF1184   [8]  C8 64 64 02 00 00 00 00
 (001.633688)  can0  18FF1084   [8]  7A 17 00 00 FF 24 57 5A
 (001.636798)  can0  0CFF1D80   [8]  04 00 00 00 00 00 00 00
 (001.638353)  can0  1CFF18FE   [8]  31 00 00 82 00 00 00 00
 (001.662969)  can0  1CFF18FE   [8]  61 06 00 07 00 00 EA 60
 (001.665685)  can0  18F08880   [8]  7D 7D 7D 7D 00 00 00 00
 (001.666842)  can0  18FF1081   [8]  6B 17 00 00 FF 24 57 5A
 (001.677678)  can0  18F08780   [8]  01 20 4B 7E 7D 00 00 00
 (001.680388)  can0  1CFF18FE   [8]  35 00 00 8C 00 00 13 88
 (001.686393)  can0  0CFF1D80   [8]  04 00 00 00 00 00 00 00
 (001.688733)  can0  1CFF18FE   [8]  31 00 00 83 00 00 38 64
 (001.715405)  can0  18F08880   [8]  7D 7D 7D 7D 00 00 00 00
 (001.719199)  can0  1CFF18FE   [8]  61 06 00 05 00 00 00 4B
 (001.721390)  can0  18FAB580   [8]  10 40 00 00 00 00 00 00
 (001.722383)  can0  18FF1181   [8]  C8 64 64 02 00 00 00 00
 (001.730333)  can0  1CFF18FE   [8]  35 00 00 8D 40 A0 00 00
 (001.731607)  can0  18FF1184   [8]  C8 64 64 02 00 00 00 00
 (001.733771)  can0  18FF1084   [8]  80 17 00 00 FF 24 57 5A
 (001.736651)  can0  0CFF1D80   [8]  04 00 00 00 00 00 00 00
 (001.738698)  can0  1CFF18FE   [8]  31 00 00 84 00 00 00 01
 (001.760684)  can0  18FF1280   [8]  01 00 00 00 00 00 00 00
 (001.764102)  can0  1CFF18FE   [8]  61 06 00 08 00 00 13 88
 (001.765387)  can0  18F08880   [8]  7D 7D 7D 7D 00 00 00 00
 (001.766658)  can0  18FF1081   [8]  6C 17 00 00 FF 24 57 5A
 (001.777371)  can0  18F08780   [8]  01 33 4B 7E 7D 00 00 00
 (001.780333)  can0  1CFF18FE   [8]  35 00 00 8E 00 00 01 F4
 (001.786756)  can0  0CFF1D80   [8]  04 00 00 00 00 00 00 00
 (001.788624)  can0  1CFF18FE   [8]  31 00 00 85 00 00 13 88
 (001.815388)  can0  18F08880   [8]  7D 7D 7D 7D 00 00 00 00
 (001.819966)  can0  1CFF18FE   [8]  61 06 00 06 00 00 03 E8
 (001.821346)  can0  18FAB580   [8]  10 40 00 00 00 00 00 00
 (001.822440)  can0  18FF1181   [8]  C8 64 64 02 00 00 00 00
 (001.830377)  can0  1CFF18FE   [8]  35 00 00 8F 00 00 13 88
 (001.830379)  can0  18FF1184   [8]  C8 64 64 02 00 00 00 00
 (001.833843)  can0  18FF1084   [8]  71 17 00 00 FF 24 57 5A
 (001.836640)  can0  0CFF1D80   [8]  04 00 00 00 00 00 00 00
 (001.838719)  can0  1CFF18FE   [8]  31 00 00 86 80 5B E0 00
 (001.865453)  can0  18F08880   [8]  7D 7D 7D 7D 00 00 00 00
 (001.865455)  can0  1CFF18FE   [8]  61 06 00 09 00 00 00 FF
 (001.866666)  can0  18FF1081   [8]  6B 17 00 00 FF 24 57 5A
 (001.877421)  can0  18F08780   [8]  01 03 4B 7D 7D 00 00 00
 (001.880389)  can0  1CFF18FE   [8]  35 00 00 90 00 00 AF C8
 (001.886724)  can0  0CFF1D80   [8]  04 00 00 00 00 00 00 00
 (001.888650)  can0  1CFF18FE   [8]  31 00 00 87 81 82 83 84
 (001.915769)  can0  18F08880   [8]  7D 7D 7D 7D 00 00 00 00
 (001.921676)  can0  18FAB580   [8]  10 40 00 00 00 00 00 00
 (001.921678)  can0  1CFF18FE   [8]  61 06 00 07 00 00 EA 60
 (001.921679)  can0  18FF1181   [8]  C8 64 64 02 00 00 00 00
 (001.930384)  can0  1CFF18FE   [8]  35 00 00 91 41 20 00 00
 (001.931610)  can0  18FF1184   [8]  C8 64 64 02 00 00 00 00
 (001.933778)  can0  18FF1084   [8]  78 17 01 00 FF 24 57 5A
 (001.936387)  can0  0CFF1D80   [8]  04 00 00 00 00 00 00 00
 (001.938811)  can0  1CFF18FE   [8]  31 00 00 88 87 00 88 00
 (001.965478)  can0  18F08880   [8]  7D 7D 7D 7D 00 00 00 00
 (001.965480)  can0  18FF1081   [8]  6B 17 00 00 FF 24 57 5A
 (001.967665)  can0  1CFF18FE   [8]  61 06 00 0A 00 00 00 00
 (001.977440)  can0  18F08780   [8]  01 19 4B 7F 7D 00 00 00
 (001.980648)  can0  1CFF18FE   [8]  35 00 00 92 42 48 00 00
 (001.986892)  can0  0CFF1D80   [8]  04 00 00 00 00 00 00 00
 (001.988401)  can0  1CFF18FE   [8]  31 00 00 89 89 00 8A 00
 (002.015791)  can0  18F08880   [8]  7D 7D 7D 7D 00 00 00 00
 (002.021688)  can0  18FAB580   [8]  10 40 00 00 00 00 00 00
 (002.021690)  can0  18FF1181   [8]  C8 64 64 02 00 00 00 00
 (002.022961)  can0  1CFF18FE   [8]  61 06 00 08 00 00 13 88
 (002.030761)  can0  1CFF18FE   [8]  35 00 00 93 00 00 01 F4
 (002.030763)  can0  18FF1184   [8]  C8 64 64 02 00 00 00 00
 (002.033458)  can0  18FF1084   [8]  79 17 00 00 FF 24 57 5A
 (002.036387)  can0  0CFF1D80   [8]  04 00 00 00 00 00 00 00
 (002.038775)  can0  1CFF18FE   [8]  31 00 00 8A 00 00 0B B8
 (002.065482)  can0  18F08880   [8]  7D 7D 7D 7D 00 00 00 00
 (002.065485)  can0  18FF1081   [8]  69 17 00 00 FF 24 57 5A
 (002.068882)  can0  1CFF18FE   [8]  61 06 00 0B 00 07 A1 20
 (002.077420)  can0  18F08780   [8]  01 1C 4B 7E 7D 00 00 00
 (002.080618)  can0  1CFF18FE   [8]  35 00 00 94 00 00 01 F4
 (002.086791)  can0  0CFF1D80   [8]  04 00 00 00 00 00 00 00
 (002.088349)  can0  1CFF18FE   [8]  31 00 00 8B 00 0D BB A0
 (002.115881)  can0  18F08880   [8]  7D 7D 7D 7D 00 00 00 00
 (002.121819)  can0  18FAB580   [8]  10 40 00 00 00 00 00 00
 (002.121820)  can0  18FF1181   [8]  C8 64 64 02 00 00 00 00
 (002.124916)  can0  1CFF18FE   [8]  61 06 00 09 00 00 00 FF
 (002.130688)  can0  1CFF18FE   [8]  35 01 00 00 41 D0 00 00
 (002.130690)  can0  18FF1184   [8]  C8 64 64 02 00 00 00 00
 (002.133426)  can0  18FF1084   [8]  78 17 00 00 FF 24 57 5A
 (002.136464)  can0  0CFF1D80   [8]  04 00 00 00 00 00 00 00
 (002.138693)  can0  1CFF18FE   [8]  31 00 00 8C 00 00 13 88
 (002.165393)  can0  18F08880   [8]  7D 7D 7D 7D 00 00 00 00
 (002.166419)  can0  18FF1081   [8]  6B 17 00 00 FF 24 57 5A
 (002.170102)  can0  1CFF18FE   [8]  61 06 00 0C 1C FF 18 FE
 (002.177368)  can0  18F08780   [8]  01 19 4B 7E 7D 00 00 00
 (002.180346)  can0  1CFF18FE   [8]  35 01 00 01 00 00 00 00
 (002.186653)  can0  0CFF1D80   [8]  04 00 00 00 00 00 00 00
 (002.188690)  can0  1CFF18FE   [8]  31 00 00 8D 40 A0 00 00
 (002.215894)  can0  18F08880   [8]  7D 7D 7D 7D 00 00 00 00
 (002.221825)  can0  18FAB580   [8]  10 40 00 00 00 00 00 00
 (002.221826)  can0  18FF1181   [8]  C8 64 64 02 00 00 00 00
 (002.226082)  can0  1CFF18FE   [8]  61 06 00 0A 00 00 00 00
 (002.230420)  can0  1CFF18FE   [8]  35 01 00 02 00 00 00 00
 (002.230423)  can0  18FF1184   [8]  C8 64 64 02 00 00 00 00
 (002.233849)  can0  18FF1084   [8]  78 17 00 00 FF 24 57 5A
 (002.236493)  can0  0CFF1D80   [8]  04 00 00 00 00 00 00 00
 (002.238597)  can0  1CFF18FE   [8]  31 00 00 8E 00 00 01 F4
 (002.260444)  can0  18FF1280   [8]  01 00 00 00 00 00 00 00
 (002.265445)  can0  18F08880   [8]  7D 7D 7D 7D 00 00 00 00
 (002.266446)  can0  18FF1081   [8]  69 17 00 00 FF 24 57 5A
 (002.272099)  can0  1CFF18FE   [8]  61 06 00 0D 1C FF 17 FE
 (002.277383)  can0  18F08780   [8]  01 19 4B 7E 7D 00 00 00
 (002.280364)  can0  1CFF18FE   [8]  35 01 00 03 E1 00 66 10
 (002.286635)  can0  0CFF1D80   [8]  04 00 00 00 00 00 00 00
 (002.288700)  can0  1CFF18FE   [8]  31 00 00 8F 00 00 13 88
 (002.315648)  can0  18F08880   [8]  7D 7D 7D 7D 00 00 00 00
 (002.321591)  can0  18FAB580   [8]  10 40 00 00 00 00 00 00
 (002.322765)  can0  18FF1181   [8]  C8 64 64 02 00 00 00 00
 (002.327551)  can0  1CFF18FE   [8]  61 06 00 0B 00 07 A1 20
 (002.330395)  can0  1CFF18FE   [8]  35 01 00 04 00 00 00 00
 (002.330396)  can0  18FF1184   [8]  C8 64 64 02 00 00 00 00
 (002.333858)  can0  18FF1084   [8]  7B 17 01 00 FF 24 57 5A
 (002.336388)  can0  0CFF1D80   [8]  04 00 00 00 00 00 00 00
 (002.338369)  can0  1CFF18FE   [8]  31 00 00 90 00 00 AF C8
 (002.365742)  can0  18F08880   [8]  7D 7D 7D 7D 00 00 00 00
 (002.365744)  can0  18FF1081   [8]  6B 17 00 00 FF 24 57 5A
 (002.373279)  can0  1CFF18FE   [8]  61 06 00 0E 18 F0 87 80
 (002.377709)  can0  18F08780   [8]  01 23 4B 7F 7D 00 00 00
 (002.380779)  can0  1CFF18FE   [8]  35 01 00 05 00 00 00 00
 (002.386441)  can0  0CFF1D80   [8]  04 00 00 00 00 00 00 00
 (002.388783)  can0  1CFF18FE   [8]  31 00 00 91 41 20 00 00
 (002.415705)  can0  18F08880   [8]  7D 7D 7D 7D 00 00 00 00
 (002.421764)  can0  18FAB580   [8]  10 40 00 00 00 00 00 00
 (002.422887)  can0  18FF1181   [8]  C8 64 64 02 00 00 00 00
 (002.428936)  can0  1CFF18FE   [8]  61 06 00 0C 1C FF 18 FE
 (002.430424)  can0  1CFF18FE   [8]  35 01 00 06 FF FF FF FF
 (002.430425)  can0  18FF1184   [8]  C8 64 64 02 00 00 00 00
 (002.433843)  can0  18FF1084   [8]  7F 17 00 00 FF 24 57 5A
 (002.436368)  can0  0CFF1D80   [8]  04 00 00 00 00 00 00 00
 (002.438329)  can0  1CFF18FE   [8]  31 00 00 92 42 48 00 00
 (002.465762)  can0  18F08880   [8]  7D 7D 7D 7D 00 00 00 00
 (002.465763)  can0  18FF1081   [8]  6A 17 00 00 FF 24 57 5A
 (002.474532)  can0  1CFF18FE   [8]  61 06 00 0F 18 FF 1B FE
 (002.477624)  can0  18F08780   [8]  01 30 4B 7E 7D 00 00 00
 (002.480385)  can0  1CFF18FE   [8]  35 01 00 07 00 05 CD D2
 (002.486378)  can0  0CFF1D80   [8]  04 00 00 00 00 00 00 00
 (002.488746)  can0  1CFF18FE   [8]  31 00 00 93 00 00 01 F4
 (002.515419)  can0  18F08880   [8]  7D 7D 7D 7D 00 00 00 00
 (002.521422)  can0  18FAB580   [8]  10 40 00 00 00 00 00 00
 (002.522660)  can0  18FF1181   [8]  C8 64 64 02 00 00 00 00
 (002.529969)  can0  1CFF18FE   [8]  61 06 00 0D 1C FF 17 FE
 (002.529971)  can0  1CFF18FE   [8]  35 01 00 08 00 00 00 00
 (002.531386)  can0  18FF1184   [8]  C8 64 64 02 00 00 00 00
 (002.533849)  can0  18FF1084   [8]  74 17 00 00 FF 24 57 5A
 (002.536670)  can0  0CFF1D80   [8]  04 00 00 00 00 00 00 00
 (002.538410)  can0  1CFF18FE   [8]  31 00 00 94 00 00 01 F4
 (002.565856)  can0  18F08880   [8]  7D 7D 7D 7D 00 00 00 00
 (002.565857)  can0  18FF1081   [8]  6B 17 00 00 FF 24 57 5A
 (002.575818)  can0  1CFF18FE   [8]  61 06 00 10 18 FF 19 FE
 (002.578721)  can0  18F08780   [8]  01 0C 4B 7E 7D 00 00 00
 (002.580625)  can0  1CFF18FE   [8]  35 01 00 09 00 00 00 02
 (002.586462)  can0  0CFF1D80   [8]  04 00 00 00 00 00 00 00
 (002.588630)  can0  1CFF18FE   [8]  31 01 00 00 41 D0 00 00
 (002.615398)  can0  18F08880   [8]  7D 7D 7D 7D 00 00 00 00
 (002.621402)  can0  18FAB580   [8]  10 40 00 00 00 00 00 00
 (002.622647)  can0  18FF1181   [8]  C8 64 64 02 00 00 00 00
 (002.630388)  can0  1CFF18FE   [8]  35 01 00 0A 00 00 00 00
 (002.631415)  can0  18FF1184   [8]  C8 64 64 02 00 00 00 00
 (002.631416)  can0  1CFF18FE   [8]  61 06 00 0E 18 F0 87 80
 (002.633686)  can0  18FF1084   [8]  7D 17 00 00 FF 24 57 5A
 (002.636773)  can0  0CFF1D80   [8]  04 00 00 00 00 00 00 00
 (002.638452)  can0  1CFF18FE   [8]  31 01 00 01 00 00 00 00
 (002.665888)  can0  18F08880   [8]  7D 7D 7D 7D 00 00 00 00
 (002.665889)  can0  18FF1081   [8]  6B 17 00 00 FF 24 57 5A
 (002.677150)  can0  1CFF18FE   [8]  61 06 00 11 18 FF 1A FE
 (002.679343)  can0  18F08780   [8]  01 29 4B 7E 7D 00 00 00
 (002.681407)  can0  1CFF18FE   [8]  35 01 00 0B 00 00 00 00
 (002.686480)  can0  0CFF1D80   [8]  04 00 00 00 00 00 00 00
 (002.688633)  can0  1CFF18FE   [8]  31 01 00 02 00 00 00 00
 (002.715480)  can0  18F08880   [8]  7D 7D 7D 7D 00 00 00 00
 (002.721460)  can0  18FAB580   [8]  10 40 00 00 00 00 00 00
 (002.721462)  can0  18FF1181   [8]  C8 64 64 02 00 00 00 00
 (002.731418)  can0  1CFF18FE   [8]  35 01 00 0C 00 00 00 00
 (002.731420)  can0  18FF1184   [8]  C8 64 64 02 00 00 00 00
 (002.732663)  can0  1CFF18FE   [8]  61 06 00 0F 18 FF 1B FE
 (002.734853)  can0  18FF1084   [8]  7C 17 00 00 FF 24 57 5A
 (002.737762)  can0  0CFF1D80   [8]  04 00 00 00 00 00 00 00
 (002.737763)  can0  1CFF18FE   [8]  31 01 00 03 E1 00 66 11
 (002.760829)  can0  18FF1280   [8]  01 00 00 00 00 00 00 00
 (002.765658)  can0  18F08880   [8]  7D 7D 7D 7D 00 00 00 00
 (002.767044)  can0  18FF1081   [8]  6B 17 00 00 FF 24 57 5A
 (002.778152)  can0  1CFF18FE   [8]  61 06 00 12 00 00 06 1B
 (002.780371)  can0  18F08780   [8]  01 26 4B 7E 7D 00 00 00
 (002.782397)  can0  1CFF18FE   [8]  35 01 00 0D 00 00 00 02
 (002.787438)  can0  0CFF1D80   [8]  04 00 00 00 00 00 00 00
 (002.787440)  can0  1CFF18FE   [8]  31 01 00 04 00 00 00 00
 (002.815490)  can0  18F08880   [8]  7D 7D 7D 7D 00 00 00 00
 (002.821427)  can0  18FAB580   [8]  10 40 00 00 00 00 00 00
 (002.821429)  can0  18FF1181   [8]  C8 64 64 02 00 00 00 00
 (002.832398)  can0  1CFF18FE   [8]  35 01 00 0E 00 00 00 00
 (002.832400)  can0  18FF1184   [8]  C8 64 64 02 00 00 00 00
 (002.833857)  can0  1CFF18FE   [8]  61 06 00 10 18 FF 19 FE
 (002.833860)  can0  18FF1084   [8]  74 17 00 00 FF 24 57 5A
 (002.837700)  can0  0CFF1D80   [8]  04 00 00 00 00 00 00 00
 (002.837703)  can0  1CFF18FE   [8]  31 01 00 05 00 00 00 00
 (002.865680)  can0  18F08880   [8]  7D 7D 7D 7D 00 00 00 00
 (002.866893)  can0  18FF1081   [8]  6B 17 00 00 FF 24 57 5A
 (002.879196)  can0  1CFF18FE   [8]  61 06 00 13 00 00 03 E8
 (002.881437)  can0  18F08780   [8]  01 0C 4B 7E 7D 00 00 00
 (002.883369)  can0  1CFF18FE   [8]  35 01 00 0F 00 02 BF 20
 (002.887456)  can0  0CFF1D80   [8]  04 00 00 00 00 00 00 00
 (002.887457)  can0  1CFF18FE   [8]  31 01 00 06 FF FF FF FF
 (002.915610)  can0  18F08880   [8]  7D 7D 7D 7D 00 00 00 00
 (002.921392)  can0  18FAB580   [8]  10 40 00 00 00 00 00 00
 (002.922422)  can0  18FF1181   [8]  C8 64 64 02 00 00 00 00
 (002.933378)  can0  1CFF18FE   [8]  35 01 00 10 00 00 D6 D8
 (002.933379)  can0  1CFF18FE   [8]  61 06 00 11 18 FF 1A FE
 (002.934617)  can0  18FF1184   [8]  C8 64 64 02 00 00 00 00
 (002.934619)  can0  18FF1084   [8]  7F 17 00 00 FF 24 57 5A
 (002.937837)  can0  0CFF1D80   [8]  04 00 00 00 00 00 00 00
 (002.937838)  can0  1CFF18FE   [8]  31 01 00 07 00 05 CD D2
 (002.965373)  can0  18F08880   [8]  7D 7D 7D 7D 00 00 00 00
 (002.966385)  can0  18FF1081   [8]  68 17 00 00 FF 24 57 5A
 (002.980020)  can0  1CFF18FE   [8]  61 06 00 14 00 00 01 2D
 (002.981405)  can0  18F08780   [8]  01 30 4B 7E 7D 00 00 00
 (002.983333)  can0  1CFF18FE   [8]  35 01 00 11 00 00 00 00
 (002.987494)  can0  0CFF1D80   [8]  04 00 00 00 00 00 00 00
 (002.988448)  can0  1CFF18FE   [8]  31 01 00 08 00 00 00 00
 (003.015395)  can0  18F08880   [8]  7D 7D 7D 7D 00 00 00 00
 (003.021413)  can0  18FAB580   [8]  10 40 00 00 00 00 00 00
 (003.022421)  can0  18FF1181   [8]  C8 64 64 02 00 00 00 00
 (003.033388)  can0  1CFF18FE   [8]  35 01 00 12 00 00 00 00
 (003.033391)  can0  18FF1184   [8]  C8 64 64 02 00 00 00 00
 (003.035435)  can0  1CFF18FE   [8]  61 06 00 12 00 00 06 1B
 (003.035436)  can0  18FF1084   [8]  79 17 00 00 FF 24 57 5A
 (003.037780)  can0  0CFF1D80   [8]  04 00 00 00 00 00 00 00
 (003.037782)  can0  1CFF18FE   [8]  31 01 00 09 00 00 00 02
 (003.065432)  can0  18F08880   [8]  7D 7D 7D 7D 00 00 00 00
 (003.066669)  can0  18FF1081   [8]  6B 17 00 00 FF 24 57 5A
 (003.081378)  can0  18F08780   [8]  01 1C 4B 7E 7D 00 00 00
 (003.081380)  can0  1CFF18FE   [8]  61 06 00 15 00 00 00 87
 (003.084435)  can0  1CFF18FE   [8]  35 01 00 13 00 00 00 00
 (003.087361)  can0  0CFF1D80   [8]  04 00 00 00 00 00 00 00
 (003.088377)  can0  1CFF18FE   [8]  31 01 00 0A 00 00 00 00
 (003.115694)  can0  18F08880   [8]  7D 7D 7D 7D 00 00 00 00
 (003.121791)  can0  18FAB580   [8]  10 40 00 00 00 00 00 00
 (003.121792)  can0  18FF1181   [8]  C8 64 64 02 00 00 00 00
 (003.134363)  can0  1CFF18FE   [8]  35 01 00 14 00 00 00 00
 (003.135611)  can0  18FF1184   [8]  C8 64 64 02 00 00 00 00
 (003.135613)  can0  1CFF18FE   [8]  61 06 00 13 00 00 03 E8
 (003.136897)  can0  18FF1084   [8]  7D 17 00 00 FF 24 57 5A
 (003.136898)  can0  0CFF1D80   [8]  04 00 00 00 00 00 00 00
 (003.139655)  can0  1CFF18FE   [8]  31 01 00 0B 00 00 00 00
 (003.165472)  can0  18F08880   [8]  7D 7D 7D 7D 00 00 00 00
 (003.165474)  can0  18FF1081   [8]  6B 17 00 00 FF 24 57 5A
 (003.181758)  can0  18F08780   [8]  01 29 4B 7E 7D 00 00 00
 (003.182822)  can0  1CFF18FE   [8]  61 06 00 16 00 00 01 2D
 (003.184405)  can0  1CFF18FE   [8]  35 01 00 15 00 00 00 00
 (003.187689)  can0  0CFF1D80   [8]  04 00 00 00 00 00 00 00
 (003.189377)  can0  1CFF18FE   [8]  31 01 00 0C 00 00 00 00
 (003.215756)  can0  18F08880   [8]  7D 7D 7D 7D 00 00 00 00
 (003.221745)  can0  18FAB580   [8]  10 40 00 00 00 00 00 00
 (003.221747)  can0  18FF1181   [8]  C8 64 64 02 00 00 00 00
 (003.234403)  can0  1CFF18FE   [8]  35 01 00 16 00 00 00 00
 (003.234406)  can0  18FF1184   [8]  C8 64 64 02 00 00 00 00
 (003.236671)  can0  18FF1084   [8]  78 17 01 00 FF 24 57 5A
 (003.237659)  can0  0CFF1D80   [8]  04 00 00 00 00 00 00 00
 (003.237661)  can0  1CFF18FE   [8]  61 06 00 14 00 00 01 2D
 (003.239676)  can0  1CFF18FE   [8]  31 01 00 0D 00 00 00 02
 (003.260398)  can0  18FF1280   [8]  01 00 00 00 00 00 00 00
 (003.265432)  can0  18F08880   [8]  7D 7D 7D 7D 00 00 00 00
 (003.265434)  can0  18FF1081   [8]  68 17 00 00 FF 24 57 5A
 (003.281731)  can0  18F08780   [8]  01 19 4B 7E 7D 00 00 00
 (003.284145)  can0  1CFF18FE   [8]  61 06 00 17 00 00 07 D0
 (003.284147)  can0  1CFF18FE   [8]  35 01 00 17 00 00 00 00
 (003.287745)  can0  0CFF1D80   [8]  04 00 00 00 00 00 00 00
 (003.289416)  can0  1CFF18FE   [8]  31 01 00 0E 00 00 00 00
 (003.315436)  can0  18F08880   [8]  7D 7D 7D 7D 00 00 00 00
 (003.321847)  can0  18FAB580   [8]  10 40 00 00 00 00 00 00
 (003.321848)  can0  18FF1181   [8]  C8 64 64 02 00 00 00 00
 (003.334398)  can0  1CFF18FE   [8]  35 01 00 18 00 00 00 00
 (003.334400)  can0  18FF1184   [8]  C8 64 64 02 00 00 00 00
 (003.336642)  can0  18FF1084   [8]  7A 17 00 00 FF 24 57 5A
 (003.336644)  can0  0CFF1D80   [8]  04 00 00 00 00 00 00 00
 (003.337942)  can0  1CFF18FE   [8]  61 06 00 15 00 00 00 87
 (003.340658)  can0  1CFF18FE   [8]  31 01 00 0F 00 02 BF 20
 (003.365423)  can0  18F08880   [8]  7D 7D 7D 7D 00 00 00 00
 (003.366429)  can0  18FF1081   [8]  6B 17 00 00 FF 24 57 5A
 (003.381892)  can0  18F08780   [8]  01 20 4B 7E 7D 00 00 00
 (003.384699)  can0  1CFF18FE   [8]  35 01 00 19 00 00 00 00
 (003.384700)  can0  1CFF18FE   [8]  61 07 00 00 00 00 00 05
 (003.387773)  can0  0CFF1D80   [8]  04 00 00 00 00 00 00 00
 (003.390378)  can0  1CFF18FE   [8]  31 01 00 10 00 00 D6 D8
 (003.415878)  can0  18F08880   [8]  7D 7D 7D 7D 00 00 00 00
 (003.421790)  can0  18FAB580   [8]  10 40 00 00 00 00 00 00
 (003.421792)  can0  18FF1181   [8]  C8 64 64 02 00 00 00 00
 (003.434380)  can0  1CFF18FE   [8]  35 01 00 1A 00 00 00 22
 (003.435397)  can0  18FF1184   [8]  C8 64 64 02 00 00 00 00
 (003.435399)  can0  18FF1084   [8]  70 17 00 00 FF 24 57 5A
 (003.438684)  can0  0CFF1D80   [8]  04 00 00 00 00 00 00 00
 (003.438685)  can0  1CFF18FE   [8]  61 06 00 16 00 00 01 2D
 (003.441397)  can0  1CFF18FE   [8]  31 01 00 11 00 00 00 00
 (003.465428)  can0  18F08880   [8]  7D 7D 7D 7D 00 00 00 00
 (003.466473)  can0  18FF1081   [8]  6B 17 00 00 FF 24 57 5A
 (003.481879)  can0  18F08780   [8]  01 00 4B 7E 7D 00 00 00
 (003.484684)  can0  1CFF18FE   [8]  35 01 00 1B 00 00 00 41
 (003.486795)  can0  1CFF18FE   [8]  61 07 00 01 42 01 FF FE
 (003.488754)  can0  0CFF1D80   [8]  04 00 00 00 00 00 00 00
 (003.491344)  can0  1CFF18FE   [8]  31 01 00 12 00 00 00 00
 (003.515742)  can0  18F08880   [8]  7D 7D 7D 7D 00 00 00 00
 (003.521629)  can0  18FAB580   [8]  10 40 00 00 00 00 00 00
 (003.522765)  can0  18FF1181   [8]  C8 64 64 02 00 00 00 00
 (003.534380)  can0  1CFF18FE   [8]  35 01 00 1C 00 00 00 42
 (003.535377)  can0  18FF1184   [8]  C8 64 64 02 00 00 00 00
 (003.535379)  can0  18FF1084   [8]  73 17 00 00 FF 24 57 5A
 (003.538411)  can0  0CFF1D80   [8]  04 00 00 00 00 00 00 00
 (003.540806)  can0  1CFF18FE   [8]  61 06 00 17 00 00 07 D0
 (003.540808)  can0  1CFF18FE   [8]  31 01 00 13 00 00 00 00
 (003.565721)  can0  18F08880   [8]  7D 7D 7D 7D 00 00 00 00
 (003.565723)  can0  18FF1081   [8]  6B 17 00 00 FF 24 57 5A
 (003.581644)  can0  18F08780   [8]  01 09 4B 7E 7D 00 00 00
 (003.584755)  can0  1CFF18FE   [8]  35 01 00 1D 00 00 00 00
 (003.587038)  can0  1CFF18FE   [8]  61 07 00 02 41 F9 92 3D
 (003.589767)  can0  0CFF1D80   [8]  04 00 00 00 00 00 00 00
 (003.591457)  can0  1CFF18FE   [8]  31 01 00 14 00 00 00 00
 (003.615664)  can0  18F08880   [8]  7D 7D 7D 7D 00 00 00 00
 (003.621668)  can0  18FAB580   [8]  10 40 00 00 00 00 00 00
 (003.622749)  can0  18FF1181   [8]  C8 64 64 02 00 00 00 00
 (003.634705)  can0  1CFF18FE   [8]  35 01 00 1E 00 00 00 00
 (003.634705)  can0  18FF1184   [8]  C8 64 64 02 00 00 00 00
 (003.636387)  can0  18FF1084   [8]  75 17 00 00 FF 24 57 5A
 (003.639640)  can0  0CFF1D80   [8]  04 00 00 00 00 00 00 00
 (003.641703)  can0  1CFF18FE   [8]  31 01 00 15 00 00 00 00
 (003.641703)  can0  1CFF18FE   [8]  61 07 00 00 00 00 00 05
 (003.665729)  can0  18F08880   [8]  7D 7D 7D 7D 00 00 00 00
 (003.665729)  can0  18FF1081   [8]  68 17 00 00 FF 24 57 5A
 (003.681692)  can0  18F08780   [8]  01 10 4B 7E 7D 00 00 00
 (003.684786)  can0  1CFF18FE   [8]  35 01 00 1F 3D 80 00 00
 (003.688299)  can0  1CFF18FE   [8]  61 07 00 03 00 00 00 00
 (003.690417)  can0  0CFF1D80   [8]  04 00 00 00 00 00 00 00
 (003.691406)  can0  1CFF18FE   [8]  31 01 00 16 00 00 00 00
 (003.715893)  can0  18F08880   [8]  7D 7D 7D 7D 00 00 00 00
 (003.721407)  can0  18FAB580   [8]  10 40 00 00 00 00 00 00
 (003.722623)  can0  18FF1181   [8]  C8 64 64 02 00 00 00 00
 (003.734667)  can0  1CFF18FE   [8]  35 01 00 20 44 16 44 00
 (003.734670)  can0  18FF1184   [8]  C8 64 64 02 00 00 00 00
 (003.736412)  can0  18FF1084   [8]  7A 17 00 00 FF 24 57 5A
 (003.740840)  can0  0CFF1D80   [8]  04 00 00 00 00 00 00 00
 (003.740842)  can0  1CFF18FE   [8]  31 01 00 17 00 00 00 00
 (003.742956)  can0  1CFF18FE   [8]  61 07 00 01 41 E9 70 9D
 (003.760405)  can0  18FF1280   [8]  01 00 00 00 00 00 00 00
 (003.765795)  can0  18F08880   [8]  7D 7D 7D 7D 00 00 00 00
 (003.765796)  can0  18FF1081   [8]  6B 17 00 00 FF 24 57 5A
 (003.781686)  can0  18F08780   [8]  01 20 4B 7D 7D 00 00 00
 (003.784623)  can0  1CFF18FE   [8]  35 01 00 21 41 BA 40 00
 (003.789426)  can0  1CFF18FE   [8]  61 07 00 04 00 00 00 00
 (003.791455)  can0  0CFF1D80   [8]  04 00 00 00 00 00 00 00
 (003.791457)  can0  1CFF18FE   [8]  31 01 00 18 00 00 00 00
 (003.815674)  can0  18F08880   [8]  7D 7D 7D 7D 00 00 00 00
 (003.821635)  can0  18FAB580   [8]  10 40 00 00 00 00 00 00
 (003.822759)  can0  18FF1181   [8]  C8 64 64 02 00 00 00 00
 (003.834702)  can0  1CFF18FE   [8]  35 01 00 22 41 A6 A8 00
 (003.834704)  can0  18FF1184   [8]  C8 64 64 02 00 00 00 00
 (003.836403)  can0  18FF1084   [8]  71 17 00 00 FF 24 57 5A
 (003.841787)  can0  0CFF1D80   [8]  04 00 00 00 00 00 00 00
 (003.841789)  can0  1CFF18FE   [8]  31 01 00 19 00 00 00 00
 (003.844938)  can0  1CFF18FE   [8]  61 07 00 02 41 DA 8C FD
 (003.865741)  can0  18F08880   [8]  7D 7D 7D 7D 00 00 00 00
 (003.865743)  can0  18FF1081   [8]  6B 17 00 00 FF 24 57 5A
 (003.881673)  can0  18F08780   [8]  01 03 4B 7D 7D 00 00 00
 (003.884792)  can0  1CFF18FE   [8]  35 01 00 23 42 07 40 00
 (003.890795)  can0  1CFF18FE   [8]  61 06 00 00 01 38 3F 7A
 (003.890796)  can0  0CFF1D80   [8]  04 00 00 00 00 00 00 00
 (003.892349)  can0  1CFF18FE   [8]  31 01 00 1A 00 00 00 22
 (003.915905)  can0  18F08880   [8]  7D 7D 7D 7D 00 00 00 00
 (003.921369)  can0  18FAB580   [8]  10 40 00 00 00 00 00 00
 (003.922626)  can0  18FF1181   [8]  C8 64 64 02 00 00 00 00
 (003.934674)  can0  1CFF18FE   [8]  35 01 00 24 00 00 06 16
 (003.934677)  can0  18FF1184   [8]  C8 64 64 02 00 00 00 00
 (003.936409)  can0  18FF1084   [8]  7B 17 00 00 FF 24 57 5A
 (003.941740)  can0  0CFF1D80   [8]  04 00 00 00 00 00 00 00
 (003.941743)  can0  1CFF18FE   [8]  31 01 00 1B 00 00 00 41
 (003.946560)  can0  1CFF18FE   [8]  61 07 00 03 00 00 00 00
 (003.965773)  can0  18F08880   [8]  7D 7D 7D 7D 00 00 00 00
 (003.965775)  can0  18FF1081   [8]  69 17 00 00 FF 24 57 5A
 (003.981681)  can0  18F08780   [8]  01 23 4B 7E 7D 00 00 00
 (003.984624)  can0  1CFF18FE   [8]  35 01 00 25 00 00 00 38
 (003.991490)  can0  0CFF1D80   [8]  04 00 00 00 00 00 00 00
 (003.991491)  can0  1CFF18FE   [8]  61 06 00 01 00 00 00 C9
 (003.992482)  can0  1CFF18FE   [8]  31 01 00 1C 00 00 00 42
 (004.015689)  can0  18F08880   [8]  7D 7D 7D 7D 00 00 00 00
 (004.021676)  can0  18FAB580   [8]  10 40 00 00 00 00 00 00
 (004.022810)  can0  18FF1181   [8]  C8 64 64 02 00 00 00 00
 (004.034773)  can0  1CFF18FE   [8]  35 01 00 26 00 00 8D 8C
 (004.034775)  can0  18FF1184   [8]  C8 64 64 02 00 00 00 00
 (004.036369)  can0  18FF1084   [8]  7E 17 00 00 FF 24 57 5A
 (004.041749)  can0  0CFF1D80   [8]  04 00 00 00 00 00 00 00
 (004.041750)  can0  1CFF18FE   [8]  31 01 00 1D 00 00 00 00
 (004.048077)  can0  1CFF18FE   [8]  61 07 00 04 00 00 00 00
 (004.065739)  can0  18F08880   [8]  7D 7D 7D 7D 00 00 00 00
 (004.065740)  can0  18FF1081   [8]  6A 17 00 00 FF 24 57 5A
 (004.081651)  can0  18F08780   [8]  01 2C 4B 7E 7D 00 00 00
 (004.084602)  can0  1CFF18FE   [8]  35 01 00 27 00 00 57 31
 (004.091456)  can0  0CFF1D80   [8]  04 00 00 00 00 00 00 00
 (004.091457)  can0  1CFF18FE   [8]  31 01 00 1E 00 00 00 00
 (004.092987)  can0  1CFF18FE   [8]  61 06 00 02 65 2D 7B 1C
 (004.115909)  can0  18F08880   [8]  7D 7D 7D 7D 00 00 00 00
 (004.121355)  can0  18FAB580   [8]  10 40 00 00 00 00 00 00
 (004.122616)  can0  18FF1181   [8]  C8 64 64 02 00 00 00 00
 (004.134811)  can0  1CFF18FE   [8]  35 01 00 28 00 00 68 5C
 (004.134813)  can0  18FF1184   [8]  C8 64 64 02 00 00 00 00
 (004.136407)  can0  18FF1084   [8]  75 17 01 00 FF 24 57 5A
 (004.141835)  can0  0CFF1D80   [8]  04 00 00 00 00 00 00 00
 (004.141837)  can0  1CFF18FE   [8]  31 01 00 1F BD 80 00 00
 (004.149865)  can0  1CFF18FE   [8]  61 06 00 00 01 38 3F 7A
 (004.165855)  can0  18F08880   [8]  7D 7D 7D 7D 00 00 00 00
 (004.165857)  can0  18FF1081   [8]  6C 17 00 00 FF 24 57 5A
 (004.181351)  can0  18F08780   [8]  01 10 4B 7F 7D 00 00 00
 (004.184360)  can0  1CFF18FE   [8]  35 01 00 29 00 00 EA 39
 (004.191364)  can0  0CFF1D80   [8]  04 00 00 00 00 00 00 00
 (004.192385)  can0  1CFF18FE   [8]  31 01 00 20 44 15 DC 00
 (004.195020)  can0  1CFF18FE   [8]  61 06 00 03 00 00 00 06
 (004.215430)  can0  18F08880   [8]  7D 7D 7D 7D 00 00 00 00
 (004.221346)  can0  18FAB580   [8]  10 40 00 00 00 00 00 00
 (004.222599)  can0  18FF1181   [8]  C8 64 64 02 00 00 00 00
 (004.234638)  can0  1CFF18FE   [8]  35 01 00 2A 41 BB 84 00
 (004.235814)  can0  18FF1184   [8]  C8 64 64 02 00 00 00 00
 (004.235816)  can0  18FF1084   [8]  71 17 00 00 FF 24 57 5A
 (004.241716)  can0  0CFF1D80   [8]  04 00 00 00 00 00 00 00
 (004.241718)  can0  1CFF18FE   [8]  31 01 00 21 41 BE 80 00
 (004.251234)  can0  1CFF18FE   [8]  61 06 00 01 00 00 00 C9
 (004.260392)  can0  18FF1280   [8]  01 00 00 00 00 00 00 00
 (004.265767)  can0  18F08880   [8]  7D 7D 7D 7D 00 00 00 00
 (004.265769)  can0  18FF1081   [8]  69 17 00 00 FF 24 57 5A
 (004.281649)  can0  18F08780   [8]  01 03 4B 7E 7D 00 00 00
 (004.284354)  can0  1CFF18FE   [8]  35 01 00 2B 42 19 40 00
 (004.291461)  can0  0CFF1D80   [8]  04 00 00 00 00 00 00 00
 (004.291462)  can0  1CFF18FE   [8]  31 01 00 22 42 97 36 00
 (004.295965)  can0  1CFF18FE   [8]  61 06 00 04 00 00 00 01
 (004.315714)  can0  18F08880   [8]  7D 7D 7D 7D 00 00 00 00
 (004.321931)  can0  18FAB580   [8]  10 40 00 00 00 00 00 00
 (004.321932)  can0  18FF1181   [8]  C8 64 64 02 00 00 00 00
 (004.334658)  can0  1CFF18FE   [8]  35 01 00 2C 00 00 04 00
 (004.335742)  can0  18FF1184   [8]  C8 64 64 02 00 00 00 00
 (004.335743)  can0  18FF1084   [8]  78 17 00 00 FF 24 57 5A
 (004.341449)  can0  0CFF1D80   [8]  04 00 00 00 00 00 00 00
 (004.341451)  can0  1CFF18FE   [8]  31 01 00 23 42 09 00 00
 (004.352186)  can0  1CFF18FE   [8]  61 06 00 02 65 2D 7B 1C
 (004.365493)  can0  18F08880   [8]  7D 7D 7D 7D 00 00 00 00
 (004.365494)  can0  18FF1081   [8]  69 17 00 00 FF 24 57 5A
 (004.381675)  can0  18F08780   [8]  01 19 4B 7E 7D 00 00 00
 (004.384362)  can0  1CFF18FE   [8]  35 01 00 2D 00 00 01 08
 (004.391702)  can0  0CFF1D80   [8]  04 00 00 00 00 00 00 00
 (004.392742)  can0  1CFF18FE   [8]  31 01 00 24 00 00 06 16
 (004.398132)  can0  1CFF18FE   [8]  61 06 00 05 00 00 00 4B
 (004.415714)  can0  18F08880   [8]  7D 7D 7D 7D 00 00 00 00
 (004.421371)  can0  18FAB580   [8]  10 40 00 00 00 00 00 00
 (004.422624)  can0  18FF1181   [8]  C8 64 64 02 00 00 00 00
 (004.434339)  can0  1CFF18FE   [8]  35 01 00 2E 00 00 2C 06
 (004.435627)  can0  18FF1184   [8]  C8 64 64 02 00 00 00 00
 (004.436829)  can0  18FF1084   [8]  80 17 01 00 FF 24 57 5A
 (004.441459)  can0  0CFF1D80   [8]  04 00 00 00 00 00 00 00
 (004.441460)  can0  1CFF18FE   [8]  31 01 00 25 00 00 01 42
 (004.454058)  can0  1CFF18FE   [8]  61 06 00 03 00 00 00 06
 (004.465417)  can0  18F08880   [8]  7D 7D 7D 7D 00 00 00 00
 (004.465418)  can0  18FF1081   [8]  6B 17 00 00 FF 24 57 5A
 (004.481709)  can0  18F08780   [8]  01 33 4B 7F 7D 00 00 00
 (004.484386)  can0  1CFF18FE   [8]  35 01 00 2F 00 00 6D 30
 (004.491629)  can0  0CFF1D80   [8]  04 00 00 00 00 00 00 00
 (004.492745)  can0  1CFF18FE   [8]  31 01 00 26 00 00 C5 0A
 (004.499171)  can0  1CFF18FE   [8]  61 06 00 06 00 00 03 E8
 (004.515692)  can0  18F08880   [8]  7D 7D 7D 7D 00 00 00 00
 (004.521358)  can0  18FAB580   [8]  10 40 00 00 00 00 00 00
 (004.522616)  can0  18FF1181   [8]  C8 64 64 02 00 00 00 00
 (004.534354)  can0  1CFF18FE   [8]  35 01 00 30 00 00 48 54
 (004.535670)  can0  18FF1184   [8]  C8 64 64 02 00 00 00 00
 (004.536893)  can0  18FF1084   [8]  81 17 00 00 FF 24 57 5A
 (004.541443)  can0  0CFF1D80   [8]  04 00 00 00 00 00 00 00
 (004.542422)  can0  1CFF18FE   [8]  31 01 00 27 00 00 2E 24
 (004.555264)  can0  1CFF18FE   [8]  61 06 00 04 00 00 00 01
 (004.565372)  can0  18F08880   [8]  7D 7D 7D 7D 00 00 00 00
 (004.566445)  can0  18FF1081   [8]  6B 17 00 00 FF 24 57 5A
 (004.581859)  can0  18F08780   [8]  01 36 4B 7E 7D 00 00 00
 (004.584336)  can0  1CFF18FE   [8]  35 01 00 31 00 00 98 DC
 (004.591634)  can0  0CFF1D80   [8]  04 00 00 00 00 00 00 00
 (004.592603)  can0  1CFF18FE   [8]  31 01 00 28 00 00 28 5C
 (004.601217)  can0  1CFF18FE   [8]  61 06 00 07 00 00 EA 60
 (004.615383)  can0  18F08880   [8]  7D 7D 7D 7D 00 00 00 00
 (004.621704)  can0  18FAB580   [8]  10 40 00 00 00 00 00 00
 (004.621707)  can0  18FF1181   [8]  C8 64 64 02 00 00 00 00
 (004.634391)  can0  1CFF18FE   [8]  35 01 00 32 00 00 00 0F
 (004.634393)  can0  18FF1184   [8]  C8 64 64 02 00 00 00 00
 (004.636640)  can0  18FF1084   [8]  7D 17 00 00 FF 24 57 5A
 (004.641433)  can0  0CFF1D80   [8]  04 00 00 00 00 00 00 00
 (004.641434)  can0  1CFF18FE   [8]  31 01 00 29 00 00 15 9A
 (004.656392)  can0  1CFF18FE   [8]  61 06 00 05 00 00 00 4B
 (004.665419)  can0  18F08880   [8]  7D 7D 7D 7D 00 00 00 00
 (004.666466)  can0  18FF1081   [8]  68 17 00 00 FF 24 57 5A
 (004.681857)  can0  18F08780   [8]  01 29 4B 7E 7D 00 00 00
 (004.684331)  can0  1CFF18FE   [8]  35 01 00 33 00 00 00 01
 (004.691426)  can0  0CFF1D80   [8]  04 00 00 00 00 00 00 00
 (004.692600)  can0  1CFF18FE   [8]  31 01 00 2A 41 BB D0 00
 (004.702253)  can0  1CFF18FE   [8]  61 06 00 08 00 00 13 88
 (004.715406)  can0  18F08880   [8]  7D 7D 7D 7D 00 00 00 00
 (004.721683)  can0  18FAB580   [8]  10 40 00 00 00 00 00 00
 (004.721686)  can0  18FF1181   [8]  C8 64 64 02 00 00 00 00
 (004.734392)  can0  1CFF18FE   [8]  35 01 00 34 00 00 00 03
 (004.734395)  can0  18FF1184   [8]  C8 64 64 02 00 00 00 00
 (004.736661)  can0  18FF1084   [8]  7D 17 00 00 FF 24 57 5A
 (004.741695)  can0  0CFF1D80   [8]  04 00 00 00 00 00 00 00
 (004.741696)  can0  1CFF18FE   [8]  31 01 00 2B 42 1A 00 00
 (004.757206)  can0  1CFF18FE   [8]  61 06 00 06 00 00 03 E8
 (004.760406)  can0  18FF1280   [8]  01 00 00 00 00 00 00 00
 (004.765802)  can0  18F08880   [8]  7D 7D 7D 7D 00 00 00 00
 (004.765803)  can0  18FF1081   [8]  6A 17 00 00 FF 24 57 5A
 (004.781635)  can0  18F08780   [8]  01 29 4B 7E 7D 00 00 00
 (004.784647)  can0  1CFF18FE   [8]  35 01 00 35 3C B0 00 00
 (004.791440)  can0  0CFF1D80   [8]  04 00 00 00 00 00 00 00
 (004.791441)  can0  1CFF18FE   [8]  31 01 00 2C 00 00 04 00
 (004.803847)  can0  1CFF18FE   [8]  61 06 00 09 00 00 00 FF
 (004.815755)  can0  18F08880   [8]  7D 7D 7D 7D 00 00 00 00
 (004.821808)  can0  18FAB580   [8]  10 40 00 00 00 00 00 00
 (004.821809)  can0  18FF1181   [8]  C8 64 64 02 00 00 00 00
 (004.834320)  can0  1CFF18FE   [8]  35 01 00 36 BC B8 00 00
 (004.835381)  can0  18FF1184   [8]  C8 64 64 02 00 00 00 00
 (004.835383)  can0  18FF1084   [8]  7D 17 00 00 FF 24 57 5A
 (004.841702)  can0  0CFF1D80   [8]  04 00 00 00 00 00 00 00
 (004.841705)  can0  1CFF18FE   [8]  31 01 00 2D 00 00 00 6C
 (004.859145)  can0  1CFF18FE   [8]  61 06 00 07 00 00 EA 60
 (004.865704)  can0  18F08880   [8]  7D 7D 7D 7D 00 00 00 00
 (004.865706)  can0  18FF1081   [8]  69 17 00 00 FF 24 57 5A
 (004.881629)  can0  18F08780   [8]  01 29 4B 7E 7D 00 00 00
 (004.884731)  can0  1CFF18FE   [8]  35 01 00 37 3B F8 00 00
 (004.891505)  can0  0CFF1D80   [8]  04 00 00 00 00 00 00 00
 (004.891507)  can0  1CFF18FE   [8]  31 01 00 2E 00 00 D5 8C
 (004.904429)  can0  1CFF18FE   [8]  61 06 00 0A 00 00 00 00
 (004.915774)  can0  18F08880   [8]  7D 7D 7D 7D 00 00 00 00
 (004.921826)  can0  18FAB580   [8]  10 40 00 00 00 00 00 00
 (004.921828)  can0  18FF1181   [8]  C8 64 64 02 00 00 00 00
 (004.934381)  can0  1CFF18FE   [8]  35 01 00 38 BB F0 00 00
 (004.935386)  can0  18FF1184   [8]  C8 64 64 02 00 00 00 00
 (004.935387)  can0  18FF1084   [8]  73 17 00 00 FF 24 57 5A
 (004.941846)  can0  0CFF1D80   [8]  04 00 00 00 00 00 00 00
 (004.941847)  can0  1CFF18FE   [8]  31 01 00 2F 00 00 57 31
 (004.960556)  can0  1CFF18FE   [8]  61 06 00 08 00 00 13 88
 (004.965839)  can0  18F08880   [8]  7D 7D 7D 7D 00 00 00 00
 (004.965841)  can0  18FF1081   [8]  6B 17 00 00 FF 24 57 5A
 (004.981418)  can0  18F08780   [8]  01 09 4B 7E 7D 00 00 00
 (004.984787)  can0  1CFF18FE   [8]  35 01 00 39 00 00 00 00
 (004.991376)  can0  0CFF1D80   [8]  04 00 00 00 00 00 00 00
 (004.992403)  can0  1CFF18FE   [8]  31 01 00 30 00 00 68 54
 (005.005919)  can0  1CFF18FE   [8]  61 06 00 0B 00 07 A1 20
 (005.015888)  can0  18F08880   [8]  7D 7D 7D 7D 00 00 00 00
 (005.021644)  can0  18FAB580   [8]  10 40 00 00 00 00 00 00
 (005.022817)  can0  18FF1181   [8]  C8 64 64 02 00 00 00 00
 (005.034667)  can0  1CFF18FE   [8]  35 01 00 3A 42 C8 00 00
 (005.034669)  can0  18FF1184   [8]  C8 64 64 02 00 00 00 00
 (005.036472)  can0  18FF1084   [8]  80 17 00 00 FF 24 57 5A
 (005.041720)  can0  0CFF1D80   [8]  04 00 00 00 00 00 00 00
 (005.041721)  can0  1CFF18FE   [8]  31 01 00 31 00 00 BC 66
 (005.061938)  can0  1CFF18FE   [8]  61 06 00 09 00 00 00 FF
 (005.065770)  can0  18F08880   [8]  7D 7D 7D 7D 00 00 00 00
 (005.065772)  can0  18FF1081   [8]  6C 17 00 00 FF 24 57 5A
 (005.081678)  can0  18F08780   [8]  01 33 4B 7E 7D 00 00 00
 (005.084807)  can0  1CFF18FE   [8]  35 01 00 3B 00 00 00 00
 (005.091464)  can0  0CFF1D80   [8]  04 00 00 00 00 00 00 00
 (005.091465)  can0  1CFF18FE   [8]  31 01 00 32 00 00 00 0F
 (005.106218)  can0  1CFF18FE   [8]  61 06 00 0C 1C FF 18 FE
 (005.115423)  can0  18F08880   [8]  7D 7D 7D 7D 00 00 00 00
 (005.121366)  can0  18FAB580   [8]  10 40 00 00 00 00 00 00
 (005.122656)  can0  18FF1181   [8]  C8 64 64 02 00 00 00 00
 (005.134712)  can0  1CFF18FE   [8]  35 01 00 3C 00 00 00 00
 (005.134714)  can0  18FF1184   [8]  C8 64 64 02 00 00 00 00
 (005.136435)  can0  18FF1084   [8]  7A 17 00 00 FF 24 57 5A
 (005.141455)  can0  0CFF1D80   [8]  04 00 00 00 00 00 00 00
 (005.141457)  can0  1CFF18FE   [8]  31 01 00 33 00 00 00 01
 (005.163016)  can0  1CFF18FE   [8]  61 06 00 0A 00 00 00 00
 (005.165425)  can0  18F08880   [8]  7D 7D 7D 7D 00 00 00 00
 (005.165426)  can0  18FF1081   [8]  6B 17 00 00 FF 24 57 5A
 (005.181688)  can0  18F08780   [8]  01 20 4B 7E 7D 00 00 00
 (005.184656)  can0  1CFF18FE   [8]  35 01 00 3D 42 C8 00 00
 (005.191639)  can0  0CFF1D80   [8]  04 00 00 00 00 00 00 00
 (005.192775)  can0  1CFF18FE   [8]  31 01 00 34 00 00 00 03
 (005.207765)  can0  1CFF18FE   [8]  61 06 00 0D 1C FF 17 FE
 (005.215430)  can0  18F08880   [8]  7D 7D 7D 7D 00 00 00 00
 (005.221479)  can0  18FAB580   [8]  10 40 00 00 00 00 00 00
 (005.221480)  can0  18FF1181   [8]  C8 64 64 02 00 00 00 00
 (005.234803)  can0  1CFF18FE   [8]  35 01 00 3E 00 00 00 00
 (005.234804)  can0  18FF1184   [8]  C8 64 64 02 00 00 00 00
 (005.236402)  can0  18FF1084   [8]  7C 17 00 00 FF 24 57 5A
 (005.241473)  can0  0CFF1D80   [8]  04 00 00 00 00 00 00 00
 (005.241474)  can0  1CFF18FE   [8]  31 01 00 35 BB E8 00 00
 (005.260381)  can0  18FF1280   [8]  01 00 00 00 00 00 00 00
 (005.264435)  can0  1CFF18FE   [8]  61 06 00 0B 00 07 A1 20
 (005.266384)  can0  18F08880   [8]  7D 7D 7D 7D 00 00 00 00
 (005.267652)  can0  18FF1081   [8]  6A 17 00 00 FF 24 57 5A
 (005.281690)  can0  18F08780   [8]  01 26 4B 7D 7D 00 00 00
 (005.284591)  can0  1CFF18FE   [8]  35 01 00 3F 00 00 00 00
 (005.291676)  can0  0CFF1D80   [8]  04 00 00 00 00 00 00 00
 (005.292793)  can0  1CFF18FE   [8]  31 01 00 36 BE 2E 40 00
 (005.308142)  can0  1CFF18FE   [8]  61 06 00 0E 18 F0 87 80
 (005.316424)  can0  18F08880   [8]  7D 7D 7D 7D 00 00 00 00
 (005.321458)  can0  18FAB580   [8]  10 40 00 00 00 00 00 00
 (005.321459)  can0  18FF1181   [8]  C8 64 64 02 00 00 00 00
 (005.334754)  can0  1CFF18FE   [8]  35 01 00 40 00 00 00 00
 (005.334756)  can0  18FF1184   [8]  C8 64 64 02 00 00 00 00
 (005.336429)  can0  18FF1084   [8]  74 17 00 00 FF 24 57 5A
 (005.341410)  can0  0CFF1D80   [8]  04 00 00 00 00 00 00 00
 (005.342437)  can0  1CFF18FE   [8]  31 01 00 37 3B B8 00 00
 (005.365906)  can0  1CFF18FE   [8]  61 06 00 0C 1C FF 18 FE
 (005.365907)  can0  18F08880   [8]  7D 7D 7D 7D 00 00 00 00
 (005.367417)  can0  18FF1081   [8]  6B 17 00 00 FF 24 57 5A
 (005.381862)  can0  18F08780   [8]  01 0C 4B 7E 7D 00 00 00
 (005.384364)  can0  1CFF18FE   [8]  35 01 00 41 00 00 00 00
 (005.391422)  can0  0CFF1D80   [8]  04 00 00 00 00 00 00 00
 (005.392604)  can0  1CFF18FE   [8]  31 01 00 38 BB B8 00 00
 (005.409276)  can0  1CFF18FE   [8]  61 06 00 0F 18 FF 1B FE
 (005.416476)  can0  18F08880   [8]  7D 7D 7D 7D 00 00 00 00
 (005.421383)  can0  18FAB580   [8]  10 40 00 00 00 00 00 00
 (005.422403)  can0  18FF1181   [8]  C8 64 64 02 00 00 00 00
 (005.434607)  can0  1CFF18FE   [8]  35 01 00 42 00 00 00 01
 (005.435798)  can0  18FF1184   [8]  C8 64 64 02 00 00 00 00
 (005.435799)  can0  18FF1084   [8]  76 17 00 00 FF 24 57 5A
 (005.441423)  can0  0CFF1D80   [8]  04 00 00 00 00 00 00 00
 (005.442434)  can0  1CFF18FE   [8]  31 01 00 39 00 00 00 00
 (005.466484)  can0  18F08880   [8]  7D 7D 7D 7D 00 00 00 00
 (005.466486)  can0  18FF1081   [8]  6B 17 00 00 FF 24 57 5A
 (005.467693)  can0  1CFF18FE   [8]  61 06 00 0D 1C FF 17 FE
 (005.481873)  can0  18F08780   [8]  01 13 4B 7E 7D 00 00 00
 (005.484630)  can0  1CFF18FE   [8]  35 01 00 43 00 00 00 00
 (005.491433)  can0  0CFF1D80   [8]  04 00 00 00 00 00 00 00
 (005.492606)  can0  1CFF18FE   [8]  31 01 00 3A 42 C8 00 00
 (005.510009)  can0  1CFF18FE   [8]  61 06 00 10 18 FF 19 FE
 (005.516479)  can0  18F08880   [8]  7D 7D 7D 7D 00 00 00 00
 (005.521374)  can0  18FAB580   [8]  10 40 00 00 00 00 00 00
 (005.522383)  can0  18FF1181   [8]  C8 64 64 02 00 00 00 00
 (005.534719)  can0  1CFF18FE   [8]  35 01 00 44 00 00 00 03
 (005.534721)  can0  18FF1184   [8]  C8 64 64 02 00 00 00 00
 (005.536671)  can0  18FF1084   [8]  7B 17 00 00 FF 24 57 5A
 (005.541729)  can0  0CFF1D80   [8]  04 00 00 00 00 00 00 00
 (005.541731)  can0  1CFF18FE   [8]  31 01 00 3B 00 00 00 00
 (005.566419)  can0  18F08880   [8]  7D 7D 7D 7D 00 00 00 00
 (005.567473)  can0  18FF1081   [8]  6C 17 00 00 FF 24 57 5A
 (005.567474)  can0  1CFF18FE   [8]  61 06 00 0E 18 F0 87 80
 (005.581694)  can0  18F08780   [8]  01 23 4B 7E 7D 00 00 00
 (005.584697)  can0  1CFF18FE   [8]  35 01 00 45 00 00 00 00
 (005.591471)  can0  0CFF1D80   [8]  04 00 00 00 00 00 00 00
 (005.591472)  can0  1CFF18FE   [8]  31 01 00 3C 00 00 00 00
 (005.611548)  can0  1CFF18FE   [8]  61 06 00 11 18 FF 1A FE
 (005.616383)  can0  18F08880   [8]  7D 7D 7D 7D 00 00 00 00
 (005.621671)  can0  18FAB580   [8]  10 40 00 00 00 00 00 00
 (005.621672)  can0  18FF1181   [8]  C8 64 64 02 00 00 00 00
 (005.634408)  can0  1CFF18FE   [8]  35 01 00 46 00 00 00 05
 (005.634409)  can0  18FF1184   [8]  C8 64 64 02 00 00 00 00
 (005.636705)  can0  18FF1084   [8]  75 17 00 00 FF 24 57 5A
 (005.641701)  can0  0CFF1D80   [8]  04 00 00 00 00 00 00 00
 (005.641702)  can0  1CFF18FE   [8]  31 01 00 3D 42 C8 00 00
 (005.666416)  can0  18F08880   [8]  7D 7D 7D 7D 00 00 00 00
 (005.667444)  can0  18FF1081   [8]  6B 17 00 00 FF 24 57 5A
 (005.669768)  can0  1CFF18FE   [8]  61 06 00 0F 18 FF 1B FE
 (005.681628)  can0  18F08780   [8]  01 10 4B 7E 7D 00 00 00
 (005.684615)  can0  1CFF18FE   [8]  35 01 00 47 00 00 00 00
 (005.691462)  can0  0CFF1D80   [8]  04 00 00 00 00 00 00 00
 (005.691463)  can0  1CFF18FE   [8]  31 01 00 3E 00 00 00 00
 (005.711964)  can0  1CFF18FE   [8]  61 06 00 12 00 00 06 1B
 (005.716439)  can0  18F08880   [8]  7D 7D 7D 7D 00 00 00 00
 (005.721686)  can0  18FAB580   [8]  10 40 00 00 00 00 00 00
 (005.721688)  can0  18FF1181   [8]  C8 64 64 02 00 00 00 00
 (005.734388)  can0  1CFF18FE   [8]  35 01 00 48 00 00 00 00
 (005.734390)  can0  18FF1184   [8]  C8 64 64 02 00 00 00 00
 (005.736641)  can0  18FF1084   [8]  70 17 00 00 FF 24 57 5A
 (005.741887)  can0  0CFF1D80   [8]  04 00 00 00 00 00 00 00
 (005.741890)  can0  1CFF18FE   [8]  31 01 00 3F 00 00 00 00
 (005.760763)  can0  18FF1280   [8]  01 00 00 00 00 00 00 00
 (005.766771)  can0  18F08880   [8]  7D 7D 7D 7D 00 00 00 00
 (005.766773)  can0  18FF1081   [8]  6A 17 00 00 FF 24 57 5A
 (005.771668)  can0  1CFF18FE   [8]  61 06 00 10 18 FF 19 FE
 (005.781463)  can0  18F08780   [8]  01 00 4B 7E 7D 00 00 00
 (005.784753)  can0  1CFF18FE   [8]  35 01 00 49 00 00 00 00
 (005.791427)  can0  0CFF1D80   [8]  04 00 00 00 00 00 00 00
 (005.792389)  can0  1CFF18FE   [8]  31 01 00 40 00 00 00 00
 (005.813827)  can0  1CFF18FE   [8]  61 06 00 13 00 00 03 E8
 (005.816709)  can0  18F08880   [8]  7D 7D 7D 7D 00 00 00 00
 (005.821769)  can0  18FAB580   [8]  10 40 00 00 00 00 00 00
 (005.821771)  can0  18FF1181   [8]  C8 64 64 02 00 00 00 00
 (005.834339)  can0  1CFF18FE   [8]  35 01 00 4A 00 00 00 00
 (005.835378)  can0  18FF1184   [8]  C8 64 64 02 00 00 00 00
 (005.835380)  can0  18FF1084   [8]  7D 17 00 00 FF 24 57 5A
 (005.841885)  can0  0CFF1D80   [8]  04 00 00 00 00 00 00 00
 (005.841886)  can0  1CFF18FE   [8]  31 01 00 41 BE 00 00 00
 (005.866773)  can0  18F08880   [8]  7D 7D 7D 7D 00 00 00 00
 (005.866775)  can0  18FF1081   [8]  69 17 00 00 FF 24 57 5A
 (005.871775)  can0  1CFF18FE   [8]  61 06 00 11 18 FF 1A FE
 (005.881390)  can0  18F08780   [8]  01 29 4B 7E 7D 00 00 00
 (005.884788)  can0  1CFF18FE   [8]  35 01 00 4B 00 00 00 14
 (005.891473)  can0  0CFF1D80   [8]  04 00 00 00 00 00 00 00
 (005.892371)  can0  1CFF18FE   [8]  31 01 00 42 00 00 00 01
 (005.914917)  can0  1CFF18FE   [8]  61 06 00 14 00 00 01 2D
 (005.916751)  can0  18F08880   [8]  7D 7D 7D 7D 00 00 00 00
 (005.921776)  can0  18FAB580   [8]  10 40 00 00 00 00 00 00
 (005.921778)  can0  18FF1181   [8]  C8 64 64 02 00 00 00 00
 (005.934373)  can0  1CFF18FE   [8]  35 01 00 4C 00 00 00 00
 (005.935436)  can0  18FF1184   [8]  C8 64 64 02 00 00 00 00
 (005.935437)  can0  18FF1084   [8]  74 17 00 00 FF 24 57 5A
 (005.941675)  can0  0CFF1D80   [8]  04 00 00 00 00 00 00 00
 (005.942797)  can0  1CFF18FE   [8]  31 01 00 43 00 00 00 00
 (005.966454)  can0  18F08880   [8]  7D 7D 7D 7D 00 00 00 00
 (005.967740)  can0  18FF1081   [8]  6B 17 00 00 FF 24 57 5A
 (005.973687)  can0  1CFF18FE   [8]  61 06 00 12 00 00 06 1B
 (005.981424)  can0  18F08780   [8]  01 0C 4B 7E 7D 00 00 00
 (005.984596)  can0  1CFF18FE   [8]  35 01 00 4D 00 00 00 00
 (005.991746)  can0  0CFF1D80   [8]  04 00 00 00 00 00 00 00
 (005.991747)  can0  1CFF18FE   [8]  31 01 00 44 00 00 00 03
 (006.015995)  can0  1CFF18FE   [8]  61 06 00 15 00 00 00 87
 (006.015996)  can0  18F08880   [8]  7D 7D 7D 7D 00 00 00 00
 (006.021598)  can0  18FAB580   [8]  10 40 00 00 00 00 00 00
 (006.022796)  can0  18FF1181   [8]  C8 64 64 02 00 00 00 00
 (006.034687)  can0  1CFF18FE   [8]  35 01 00 4E 00 00 00 0A
 (006.034689)  can0  18FF1184   [8]  C8 64 64 02 00 00 00 00
 (006.036473)  can0  18FF1084   [8]  78 17 00 00 FF 24 57 5A
 (006.041668)  can0  0CFF1D80   [8]  04 00 00 00 00 00 00 00
 (006.042802)  can0  1CFF18FE   [8]  31 01 00 45 00 00 00 00
 (006.066849)  can0  18F08880   [8]  7D 7D 7D 7D 00 00 00 00
 (006.066851)  can0  18FF1081   [8]  69 17 00 00 FF 24 57 5A
 (006.075318)  can0  1CFF18FE   [8]  61 06 00 13 00 00 03 E8
 (006.081424)  can0  18F08780   [8]  01 19 4B 7D 7D 00 00 00
 (006.084598)  can0  1CFF18FE   [8]  35 01 00 4F 00 00 00 00
 (006.091708)  can0  0CFF1D80   [8]  04 00 00 00 00 00 00 00
 (006.091709)  can0  1CFF18FE   [8]  31 01 00 46 00 00 00 05
 (006.116882)  can0  18F08880   [8]  7D 7D 7D 7D 00 00 00 00
 (006.116883)  can0  1CFF18FE   [8]  61 06 00 16 00 00 01 2D
 (006.121693)  can0  18FAB580   [8]  10 40 00 00 00 00 00 00
 (006.122805)  can0  18FF1181   [8]  C8 64 64 02 00 00 00 00
 (006.134693)  can0  1CFF18FE   [8]  35 01 00 50 00 00 00 00
 (006.134695)  can0  18FF1184   [8]  C8 64 64 02 00 00 00 00
 (006.136417)  can0  18FF1084   [8]  7C 17 00 00 FF 24 57 5A
 (006.141415)  can0  0CFF1D80   [8]  04 00 00 00 00 00 00 00
 (006.142673)  can0  1CFF18FE   [8]  31 01 00 47 00 00 00 00
 (006.166661)  can0  18F08880   [8]  7D 7D 7D 7D 00 00 00 00
 (006.167820)  can0  18FF1081   [8]  6B 17 00 00 FF 24 57 5A
 (006.176136)  can0  1CFF18FE   [8]  61 06 00 14 00 00 01 2D
 (006.181415)  can0  18F08780   [8]  01 26 4B 7E 7D 00 00 00
 (006.184324)  can0  1CFF18FE   [8]  35 01 00 51 00 00 00 00
 (006.191826)  can0  0CFF1D80   [8]  04 00 00 00 00 00 00 00
 (006.191828)  can0  1CFF18FE   [8]  31 01 00 48 00 00 00 00
 (006.216705)  can0  18F08880   [8]  7D 7D 7D 7D 00 00 00 00
 (006.218442)  can0  1CFF18FE   [8]  61 06 00 17 00 00 07 D0
 (006.221426)  can0  18FAB580   [8]  10 40 00 00 00 00 00 00
 (006.222612)  can0  18FF1181   [8]  C8 64 64 02 00 00 00 00
 (006.234816)  can0  1CFF18FE   [8]  35 01 00 52 00 00 00 00
 (006.234817)  can0  18FF1184   [8]  C8 64 64 02 00 00 00 00
 (006.236424)  can0  18FF1084   [8]  7A 17 00 00 FF 24 57 5A
 (006.241440)  can0  0CFF1D80   [8]  04 00 00 00 00 00 00 00
 (006.242677)  can0  1CFF18FE   [8]  31 01 00 49 00 00 00 00
 (006.260642)  can0  18FF1280   [8]  01 00 00 00 00 00 00 00
 (006.266663)  can0  18F08880   [8]  7D 7D 7D 7D 00 00 00 00
 (006.267821)  can0  18FF1081   [8]  6A 17 00 00 FF 24 57 5A
 (006.277834)  can0  1CFF18FE   [8]  61 06 00 15 00 00 00 87
 (006.281398)  can0  18F08780   [8]  01 20 4B 7E 7D 00 00 00
 (006.284605)  can0  1CFF18FE   [8]  35 01 00 53 00 00 00 00
 (006.291850)  can0  0CFF1D80   [8]  04 00 00 00 00 00 00 00
 (006.291851)  can0  1CFF18FE   [8]  31 01 00 4A 00 00 00 00
 (006.316707)  can0  18F08880   [8]  7D 7D 7D 7D 00 00 00 00
 (006.320032)  can0  1CFF18FE   [8]  61 07 00 00 00 00 00 05
 (006.321344)  can0  18FAB580   [8]  10 40 00 00 00 00 00 00
 (006.322619)  can0  18FF1181   [8]  C8 64 64 02 00 00 00 00
 (006.334670)  can0  1CFF18FE   [8]  35 01 00 54 00 00 00 00
 (006.334673)  can0  18FF1184   [8]  C8 64 64 02 00 00 00 00
 (006.336454)  can0  18FF1084   [8]  7B 17 00 00 FF 24 57 5A
 (006.341462)  can0  0CFF1D80   [8]  04 00 00 00 00 00 00 00
 (006.341463)  can0  1CFF18FE   [8]  31 01 00 4B 00 00 00 14
 (006.366392)  can0  18F08880   [8]  7D 7D 7D 7D 00 00 00 00
 (006.367654)  can0  18FF1081   [8]  6A 17 00 00 FF 24 57 5A
 (006.379963)  can0  1CFF18FE   [8]  61 06 00 16 00 00 01 2D
 (006.381726)  can0  18F08780   [8]  01 23 4B 7D 7D 00 00 00
 (006.384670)  can0  1CFF18FE   [8]  35 01 00 55 00 00 00 00
 (006.391629)  can0  0CFF1D80   [8]  04 00 00 00 00 00 00 00
 (006.392786)  can0  1CFF18FE   [8]  31 01 00 4C 00 00 00 00
 (006.416415)  can0  18F08880   [8]  7D 7D 7D 7D 00 00 00 00
 (006.421255)  can0  1CFF18FE   [8]  61 07 00 01 42 01 EB 86
 (006.421257)  can0  18FAB580   [8]  10 40 00 00 00 00 00 00
 (006.423660)  can0  18FF1181   [8]  C8 64 64 02 00 00 00 00
 (006.434397)  can0  1CFF18FE   [8]  35 01 00 56 00 00 00 00
 (006.434399)  can0  18FF1184   [8]  C8 64 64 02 00 00 00 00
 (006.436679)  can0  18FF1084   [8]  7A 17 00 00 FF 24 57 5A
 (006.441645)  can0  0CFF1D80   [8]  04 00 00 00 00 00 00 00
 (006.441647)  can0  1CFF18FE   [8]  31 01 00 4D 00 00 00 00
 (006.466433)  can0  18F08880   [8]  7D 7D 7D 7D 00 00 00 00
 (006.467643)  can0  18FF1081   [8]  69 17 00 00 FF 24 57 5A
 (006.481503)  can0  1CFF18FE   [8]  61 06 00 17 00 00 07 D0
 (006.481504)  can0  18F08780   [8]  01 20 4B 7D 7D 00 00 00
 (006.484458)  can0  1CFF18FE   [8]  35 01 00 57 00 00 00 00
 (006.491674)  can0  0CFF1D80   [8]  04 00 00 00 00 00 00 00
 (006.492769)  can0  1CFF18FE   [8]  31 01 00 4E 00 00 00 0A
 (006.516432)  can0  18F08880   [8]  7D 7D 7D 7D 00 00 00 00
 (006.521448)  can0  18FAB580   [8]  10 40 00 00 00 00 00 00
 (006.521450)  can0  1CFF18FE   [8]  61 07 00 02 41 F9 5B DD
 (006.524814)  can0  18FF1181   [8]  C8 64 64 02 00 00 00 00
 (006.534356)  can0  1CFF18FE   [8]  35 01 00 58 00 00 00 CC
 (006.535587)  can0  18FF1184   [8]  C8 64 64 02 00 00 00 00
 (006.536813)  can0  18FF1084   [8]  70 17 00 00 FF 24 57 5A
 (006.541495)  can0  0CFF1D80   [8]  04 00 00 00 00 00 00 00
 (006.542396)  can0  1CFF18FE   [8]  31 01 00 4F 00 00 00 00
 (006.566493)  can0  18F08880   [8]  7D 7D 7D 7D 00 00 00 00
 (006.566495)  can0  18FF1081   [8]  6B 17 00 00 FF 24 57 5A
 (006.581849)  can0  18F08780   [8]  01 00 4B 7E 7D 00 00 00
 (006.581850)  can0  1CFF18FE   [8]  61 07 00 00 00 00 00 05
 (006.584382)  can0  1CFF18FE   [8]  35 01 00 59 00 00 00 0C
 (006.591388)  can0  0CFF1D80   [8]  04 00 00 00 00 00 00 00
 (006.592620)  can0  1CFF18FE   [8]  31 01 00 50 00 00 00 00
 (006.616411)  can0  18F08880   [8]  7D 7D 7D 7D 00 00 00 00
 (006.621364)  can0  18FAB580   [8]  10 40 00 00 00 00 00 00
 (006.623354)  can0  1CFF18FE   [8]  61 07 00 03 00 00 00 00
 (006.625759)  can0  18FF1181   [8]  C8 64 64 02 00 00 00 00
 (006.634785)  can0  1CFF18FE   [8]  35 01 00 5A 00 00 00 DC
 (006.634786)  can0  18FF1184   [8]  C8 64 64 02 00 00 00 00
 (006.636370)  can0  18FF1084   [8]  7B 17 00 00 FF 24 57 5A
 (006.641828)  can0  0CFF1D80   [8]  04 00 00 00 00 00 00 00
 (006.641829)  can0  1CFF18FE   [8]  31 01 00 51 00 00 00 00
 (006.666476)  can0  18F08880   [8]  7D 7D 7D 7D 00 00 00 00
 (006.666477)  can0  18FF1081   [8]  6C 17 00 00 FF 24 57 5A
 (006.681843)  can0  18F08780   [8]  01 23 4B 7E 7D 00 00 00
 (006.682994)  can0  1CFF18FE   [8]  61 07 00 01 41 EB 85 1D
 (006.684626)  can0  1CFF18FE   [8]  35 01 00 5B 00 00 00 F0
 (006.691400)  can0  0CFF1D80   [8]  04 00 00 00 00 00 00 00
 (006.692598)  can0  1CFF18FE   [8]  31 01 00 52 00 00 00 00
 (006.716397)  can0  18F08880   [8]  7D 7D 7D 7D 00 00 00 00
 (006.721344)  can0  18FAB580   [8]  10 40 00 00 00 00 00 00
 (006.725025)  can0  1CFF18FE   [8]  61 07 00 04 00 00 00 00
 (006.725025)  can0  18FF1181   [8]  C8 64 64 02 00 00 00 00
 (006.734850)  can0  1CFF18FE   [8]  35 01 00 5C 00 00 00 A0
 (006.734852)  can0  18FF1184   [8]  C8 64 64 02 00 00 00 00
 (006.736360)  can0  18FF1084   [8]  7C 17 00 00 FF 24 57 5A
 (006.741812)  can0  0CFF1D80   [8]  04 00 00 00 00 00 00 00
 (006.741814)  can0  1CFF18FE   [8]  31 01 00 53 00 00 00 00
 (006.760404)  can0  18FF1280   [8]  01 00 00 00 00 00 00 00
 (006.766438)  can0  18F08880   [8]  7D 7D 7D 7D 00 00 00 00
 (006.767420)  can0  18FF1081   [8]  6B 17 00 00 FF 24 57 5A
 (006.781668)  can0  18F08780   [8]  01 26 4B 7E 7D 00 00 00
 (006.784006)  can0  1CFF18FE   [8]  61 07 00 02 41 DB 25 BD
 (006.784007)  can0  1CFF18FE   [8]  35 01 00 5D 00 00 00 00
 (006.791523)  can0  0CFF1D80   [8]  04 00 00 00 00 00 00 00
 (006.791524)  can0  1CFF18FE   [8]  31 01 00 54 00 00 00 00
 (006.816656)  can0  18F08880   [8]  7D 7D 7D 7D 00 00 00 00
 (006.821694)  can0  18FAB580   [8]  10 40 00 00 00 00 00 00
 (006.825663)  can0  18FF1181   [8]  C8 64 64 02 00 00 00 00
 (006.825664)  can0  1CFF18FE   [8]  61 06 00 00 01 38 3F 7A
 (006.834618)  can0  1CFF18FE   [8]  35 01 00 5E 00 00 00 C8
 (006.835788)  can0  18FF1184   [8]  C8 64 64 02 00 00 00 00
 (006.835789)  can0  18FF1084   [8]  7E 17 00 00 FF 24 57 5A
 (006.841466)  can0  0CFF1D80   [8]  04 00 00 00 00 00 00 00
 (006.842630)  can0  1CFF18FE   [8]  31 01 00 55 00 00 00 00
 (006.866421)  can0  18F08880   [8]  7D 7D 7D 7D 00 00 00 00
 (006.867448)  can0  18FF1081   [8]  6A 17 00 00 FF 24 57 5A
 (006.881698)  can0  18F08780   [8]  01 2C 4B 7E 7D 00 00 00
 (006.884366)  can0  1CFF18FE   [8]  35 01 00 5F 3F 80 00 00
 (006.885435)  can0  1CFF18FE   [8]  61 07 00 03 00 00 00 00
 (006.891467)  can0  0CFF1D80   [8]  04 00 00 00 00 00 00 00
 (006.891468)  can0  1CFF18FE   [8]  31 01 00 56 00 00 00 00
 (006.916699)  can0  18F08880   [8]  7D 7D 7D 7D 00 00 00 00
 (006.921679)  can0  18FAB580   [8]  10 40 00 00 00 00 00 00
 (006.925674)  can0  18FF1181   [8]  C8 64 64 02 00 00 00 00
 (006.927906)  can0  1CFF18FE   [8]  61 06 00 01 00 00 00 C9
 (006.934607)  can0  1CFF18FE   [8]  35 01 00 60 00 00 00 00
 (006.935752)  can0  18FF1184   [8]  C8 64 64 02 00 00 00 00
 (006.935754)  can0  18FF1084   [8]  73 17 00 00 FF 24 57 5A
 (006.941827)  can0  0CFF1D80   [8]  04 00 00 00 00 00 00 00
 (006.941829)  can0  1CFF18FE   [8]  31 01 00 57 00 00 00 00
 (006.966473)  can0  18F08880   [8]  7D 7D 7D 7D 00 00 00 00
 (006.966474)  can0  18FF1081   [8]  69 17 00 00 FF 24 57 5A
 (006.981387)  can0  18F08780   [8]  01 09 4B 7E 7D 00 00 00
 (006.984366)  can0  1CFF18FE   [8]  35 01 00 61 3F 80 00 00
 (006.986702)  can0  1CFF18FE   [8]  61 07 00 04 00 00 00 00
 (006.991380)  can0  0CFF1D80   [8]  04 00 00 00 00 00 00 00
 (006.992433)  can0  1CFF18FE   [8]  31 01 00 58 00 00 00 CC
 (007.016873)  can0  18F08880   [8]  7D 7D 7D 7D 00 00 00 00
 (007.021784)  can0  18FAB580   [8]  10 40 00 00 00 00 00 00
 (007.025354)  can0  18FF1181   [8]  C8 64 64 02 00 00 00 00
 (007.029016)  can0  1CFF18FE   [8]  61 06 00 02 65 2D 7B 1C
 (007.034390)  can0  1CFF18FE   [8]  35 01 00 62 00 00 00 00
 (007.035648)  can0  18FF1184   [8]  C8 64 64 02 00 00 00 00
 (007.036858)  can0  18FF1084   [8]  7B 17 00 00 FF 24 57 5A
 (007.041716)  can0  0CFF1D80   [8]  04 00 00 00 00 00 00 00
 (007.041717)  can0  1CFF18FE   [8]  31 01 00 59 00 00 00 0C
 (007.066689)  can0  18F08880   [8]  7D 7D 7D 7D 00 00 00 00
 (007.066690)  can0  18FF1081   [8]  6A 17 00 00 FF 24 57 5A
 (007.081431)  can0  18F08780   [8]  01 23 4B 7E 7D 00 00 00
 (007.084401)  can0  1CFF18FE   [8]  35 01 00 63 3C A0 00 00
 (007.088017)  can0  1CFF18FE   [8]  61 06 00 00 01 38 3F 7A
 (007.091389)  can0  0CFF1D80   [8]  04 00 00 00 00 00 00 00
 (007.092402)  can0  1CFF18FE   [8]  31 01 00 5A 00 00 01 04
 (007.116872)  can0  18F08880   [8]  7D 7D 7D 7D 00 00 00 00
 (007.121824)  can0  18FAB580   [8]  10 40 00 00 00 00 00 00
 (007.125342)  can0  18FF1181   [8]  C8 64 64 02 00 00 00 00
 (007.130328)  can0  1CFF18FE   [8]  61 06 00 03 00 00 00 06
 (007.134327)  can0  1CFF18FE   [8]  35 01 00 64 3D 2B 00 00
 (007.135602)  can0  18FF1184   [8]  C8 64 64 02 00 00 00 00
 (007.136817)  can0  18FF1084   [8]  7F 17 00 00 FF 24 57 5A
 (007.141695)  can0  0CFF1D80   [8]  04 00 00 00 00 00 00 00
 (007.142793)  can0  1CFF18FE   [8]  31 01 00 5B 00 00 00 F0
 (007.166867)  can0  18F08880   [8]  7D 7D 7D 7D 00 00 00 00
 (007.166868)  can0  18FF1081   [8]  6B 17 00 00 FF 24 57 5A
 (007.181456)  can0  18F08780   [8]  01 30 4B 7E 7D 00 00 00
 (007.184678)  can0  1CFF18FE   [8]  35 01 00 65 3B 80 00 00
 (007.189793)  can0  1CFF18FE   [8]  61 06 00 01 00 00 00 C9
 (007.191734)  can0  0CFF1D80   [8]  04 00 00 00 00 00 00 00
 (007.191735)  can0  1CFF18FE   [8]  31 01 00 5C 00 00 00 A0
 (007.216378)  can0  18F08880   [8]  7D 7D 7D 7D 00 00 00 00
 (007.221624)  can0  18FAB580   [8]  10 40 00 00 00 00 00 00
 (007.225390)  can0  18FF1181   [8]  C8 64 64 02 00 00 00 00
 (007.231721)  can0  1CFF18FE   [8]  61 06 00 04 00 00 00 01
 (007.234346)  can0  1CFF18FE   [8]  35 01 00 66 3C 88 00 00
 (007.234347)  can0  18FF1184   [8]  C8 64 64 02 00 00 00 00
 (007.236633)  can0  18FF1084   [8]  73 17 00 00 FF 24 57 5A
 (007.241844)  can0  0CFF1D80   [8]  04 00 00 00 00 00 00 00
 (007.241845)  can0  1CFF18FE   [8]  31 01 00 5D 00 00 00 00
 (007.260823)  can0  18FF1280   [8]  01 00 00 00 00 00 00 00
 (007.266900)  can0  18F08880   [8]  7D 7D 7D 7D 00 00 00 00
 (007.266902)  can0  18FF1081   [8]  69 17 00 00 FF 24 57 5A
 (007.281441)  can0  18F08780   [8]  01 09 4B 7E 7D 00 00 00
 (007.284359)  can0  1CFF18FE   [8]  35 01 00 67 00 00 00 00
 (007.291674)  can0  1CFF18FE   [8]  61 06 00 02 65 2D 7B 1C
 (007.291677)  can0  0CFF1D80   [8]  04 00 00 00 00 00 00 00
 (007.291678)  can0  1CFF18FE   [8]  31 01 00 5E 00 00 00 C8
 (007.316453)  can0  18F08880   [8]  7D 7D 7D 7D 00 00 00 00
 (007.321669)  can0  18FAB580   [8]  10 40 00 00 00 00 00 00
 (007.325462)  can0  18FF1181   [8]  C8 64 64 02 00 00 00 00
 (007.332916)  can0  1CFF18FE   [8]  61 06 00 05 00 00 00 4B
 (007.334359)  can0  1CFF18FE   [8]  35 01 00 68 00 00 00 02
 (007.334360)  can0  18FF1184   [8]  C8 64 64 02 00 00 00 00
 (007.336643)  can0  18FF1084   [8]  7D 17 00 00 FF 24 57 5A
 (007.341423)  can0  0CFF1D80   [8]  04 00 00 00 00 00 00 00
 (007.342618)  can0  1CFF18FE   [8]  31 01 00 5F 3F 80 00 00
 (007.366675)  can0  18F08880   [8]  7D 7D 7D 7D 00 00 00 00
 (007.367831)  can0  18FF1081   [8]  69 17 00 00 FF 24 57 5A
 (007.381448)  can0  18F08780   [8]  01 29 4B 7E 7D 00 00 00
 (007.384392)  can0  1CFF18FE   [8]  35 01 00 69 44 17 10 00
 (007.391915)  can0  0CFF1D80   [8]  04 00 00 00 00 00 00 00
 (007.391916)  can0  1CFF18FE   [8]  31 01 00 60 00 00 00 00
 (007.392953)  can0  1CFF18FE   [8]  61 06 00 03 00 00 00 06
 (007.416783)  can0  18F08880   [8]  7D 7D 7D 7D 00 00 00 00
 (007.421400)  can0  18FAB580   [8]  10 40 00 00 00 00 00 00
 (007.425383)  can0  18FF1181   [8]  C8 64 64 02 00 00 00 00
 (007.434677)  can0  1CFF18FE   [8]  35 01 00 6A 00 00 00 00
 (007.434678)  can0  1CFF18FE   [8]  61 06 00 06 00 00 03 E8
 (007.434679)  can0  18FF1184   [8]  C8 64 64 02 00 00 00 00
 (007.437466)  can0  18FF1084   [8]  7D 17 00 00 FF 24 57 5A
 (007.441815)  can0  0CFF1D80   [8]  04 00 00 00 00 00 00 00
 (007.441816)  can0  1CFF18FE   [8]  31 01 00 61 3F 80 00 00
 (007.466885)  can0  18F08880   [8]  7D 7D 7D 7D 00 00 00 00
 (007.466886)  can0  18FF1081   [8]  6B 17 00 00 FF 24 57 5A
 (007.481447)  can0  18F08780   [8]  01 29 4B 7E 7D 00 00 00
 (007.484811)  can0  1CFF18FE   [8]  35 01 00 6B 00 00 00 00
 (007.491700)  can0  0CFF1D80   [8]  04 00 00 00 00 00 00 00
 (007.491703)  can0  1CFF18FE   [8]  31 01 00 62 00 00 00 00
 (007.493762)  can0  1CFF18FE   [8]  61 06 00 04 00 00 00 01
 (007.516443)  can0  18F08880   [8]  7D 7D 7D 7D 00 00 00 00
 (007.522137)  can0  18FAB580   [8]  10 40 00 00 00 00 00 00
 (007.525386)  can0  18FF1181   [8]  C8 64 64 02 00 00 00 00
 (007.534671)  can0  1CFF18FE   [8]  35 01 00 6C 00 00 00 00
 (007.534673)  can0  18FF1184   [8]  C8 64 64 02 00 00 00 00
 (007.536923)  can0  1CFF18FE   [8]  61 06 00 07 00 00 EA 60
 (007.536925)  can0  18FF1084   [8]  7F 17 00 00 FF 24 57 5A
 (007.541655)  can0  0CFF1D80   [8]  04 00 00 00 00 00 00 00
 (007.541656)  can0  1CFF18FE   [8]  31 01 00 63 BE 1D 80 00
 (007.566451)  can0  18F08880   [8]  7D 7D 7D 7D 00 00 00 00
 (007.567469)  can0  18FF1081   [8]  6C 17 00 00 FF 24 57 5A
 (007.581676)  can0  18F08780   [8]  01 30 4B 7D 7D 00 00 00
 (007.584352)  can0  1CFF18FE   [8]  35 01 00 6D 00 00 00 91
 (007.591424)  can0  0CFF1D80   [8]  04 00 00 00 00 00 00 00
 (007.591426)  can0  1CFF18FE   [8]  31 01 00 64 3E C2 60 00
 (007.595176)  can0  1CFF18FE   [8]  61 06 00 05 00 00 00 4B
 (007.616446)  can0  18F08880   [8]  7D 7D 7D 7D 00 00 00 00
 (007.621735)  can0  18FAB580   [8]  10 40 00 00 00 00 00 00
 (007.625625)  can0  18FF1181   [8]  C8 64 64 02 00 00 00 00
 (007.634776)  can0  1CFF18FE   [8]  35 01 00 6E 00 00 0B 11
 (007.634778)  can0  18FF1184   [8]  C8 64 64 02 00 00 00 00
 (007.637411)  can0  18FF1084   [8]  7A 17 00 00 FF 24 57 5A
 (007.638430)  can0  1CFF18FE   [8]  61 06 00 08 00 00 13 88
 (007.641503)  can0  0CFF1D80   [8]  04 00 00 00 00 00 00 00
 (007.641504)  can0  1CFF18FE   [8]  31 01 00 65 3B B8 00 00
 (007.666442)  can0  18F08880   [8]  7D 7D 7D 7D 00 00 00 00
 (007.667470)  can0  18FF1081   [8]  6B 17 00 00 FF 24 57 5A
 (007.681692)  can0  18F08780   [8]  01 20 4B 7E 7D 00 00 00
 (007.684627)  can0  1CFF18FE   [8]  35 01 00 6F 00 00 00 00
 (007.691422)  can0  0CFF1D80   [8]  04 00 00 00 00 00 00 00
 (007.691425)  can0  1CFF18FE   [8]  31 01 00 66 BC 68 00 00
 (007.696154)  can0  1CFF18FE   [8]  61 06 00 06 00 00 03 E8
 (007.716425)  can0  18F08880   [8]  7D 7D 7D 7D 00 00 00 00
 (007.721770)  can0  18FAB580   [8]  10 40 00 00 00 00 00 00
 (007.725833)  can0  18FF1181   [8]  C8 64 64 02 00 00 00 00
 (007.734767)  can0  1CFF18FE   [8]  35 01 00 70 41 D0 00 00
 (007.734768)  can0  18FF1184   [8]  C8 64 64 02 00 00 00 00
 (007.737507)  can0  18FF1084   [8]  7E 17 00 00 FF 24 57 5A
 (007.740267)  can0  1CFF18FE   [8]  61 06 00 09 00 00 00 FF
 (007.741667)  can0  0CFF1D80   [8]  04 00 00 00 00 00 00 00
 (007.741668)  can0  1CFF18FE   [8]  31 01 00 67 00 00 00 00
 (007.760698)  can0  18FF1280   [8]  05 00 00 00 00 00 00 00
 (007.766740)  can0  18F08880   [8]  7D 7D 7D 7D 00 00 00 00
 (007.766741)  can0  18FF1081   [8]  6B 17 00 00 FF 24 57 5A
 (007.781356)  can0  18F08780   [8]  01 2C 4B 7E 7D 00 00 00
 (007.784418)  can0  1CFF18FE   [8]  35 01 00 71 41 D0 00 00
 (007.791416)  can0  0CFF1D80   [8]  04 00 00 00 00 00 00 00
 (007.792441)  can0  1CFF18FE   [8]  31 01 00 68 00 00 00 02
 (007.797730)  can0  1CFF18FE   [8]  61 06 00 07 00 00 EA 60
 (007.816418)  can0  18F08880   [8]  7D 7D 7D 7D 00 00 00 00
 (007.821396)  can0  18FAB580   [8]  10 40 00 00 00 00 00 00
 (007.825395)  can0  18FF1181   [8]  C8 64 64 02 00 00 00 00
 (007.834568)  can0  1CFF18FE   [8]  35 01 00 72 00 00 00 00
 (007.835771)  can0  18FF1184   [8]  C8 64 64 02 00 00 00 00
 (007.837416)  can0  18FF1084   [8]  74 17 00 00 FF 24 57 5A
 (007.841058)  can0  1CFF18FE   [8]  61 06 00 0A 00 00 00 00
 (007.841059)  can0  0CFF1D80   [8]  04 00 00 00 00 00 00 00
 (007.842417)  can0  1CFF18FE   [8]  31 01 00 69 44 15 F4 00
 (007.866401)  can0  18F08880   [8]  7D 7D 7D 7D 00 00 00 00
 (007.867734)  can0  18FF1081   [8]  6C 17 00 00 FF 24 57 5A
 (007.881400)  can0  18F08780   [8]  01 0C 4B 7E 7D 00 00 00
 (007.884357)  can0  1CFF18FE   [8]  35 01 00 73 00 00 00 02
 (007.891367)  can0  0CFF1D80   [8]  04 00 00 00 00 00 00 00
 (007.892387)  can0  1CFF18FE   [8]  31 01 00 6A 00 00 00 00
 (007.898860)  can0  1CFF18FE   [8]  61 06 00 08 00 00 13 88
 (007.916424)  can0  18F08880   [8]  7D 7D 7D 7D 00 00 00 00
 (007.921404)  can0  18FAB580   [8]  10 40 00 00 00 00 00 00
 (007.925383)  can0  18FF1181   [8]  C8 64 64 02 00 00 00 00
 (007.934592)  can0  1CFF18FE   [8]  35 01 00 74 00 00 00 02
 (007.935790)  can0  18FF1184   [8]  C8 64 64 02 00 00 00 00
 (007.937399)  can0  18FF1084   [8]  70 17 00 00 FF 24 57 5A
 (007.941478)  can0  0CFF1D80   [8]  04 00 00 00 00 00 00 00
 (007.941479)  can0  1CFF18FE   [8]  61 06 00 0B 00 07 A1 20
 (007.942692)  can0  1CFF18FE   [8]  31 01 00 6B 00 00 00 00
 (007.966463)  can0  18F08880   [8]  7D 7D 7D 7D 00 00 00 00
 (007.967709)  can0  18FF1081   [8]  68 17 00 00 FF 24 57 5A
 (007.981458)  can0  18F08780   [8]  01 00 4B 7E 7D 00 00 00
 (007.984581)  can0  1CFF18FE   [8]  35 01 00 75 00 00 00 00
 (007.991702)  can0  0CFF1D80   [8]  04 00 00 00 00 00 00 00
 (007.991703)  can0  1CFF18FE   [8]  31 01 00 6C 00 00 00 00
 (008.000164)  can0  1CFF18FE   [8]  61 06 00 09 00 00 00 FF
 (008.016428)  can0  18F08880   [8]  7D 7D 7D 7D 00 00 00 00
 (008.021718)  can0  18FAB580   [8]  10 40 00 00 00 00 00 00
 (008.025473)  can0  18FF1181   [8]  C8 64 64 02 00 00 00 00
 (008.034323)  can0  1CFF18FE   [8]  35 01 00 76 41 EB 85 1D
 (008.035610)  can0  18FF1184   [8]  C8 64 64 02 00 00 00 00
 (008.037700)  can0  18FF1084   [8]  76 17 00 00 FF 24 57 5A
 (008.041712)  can0  0CFF1D80   [8]  04 00 00 00 00 00 00 00
 (008.041714)  can0  1CFF18FE   [8]  31 01 00 6D 00 00 00 2E
 (008.042858)  can0  1CFF18FE   [8]  61 06 00 0C 1C FF 18 FE
 (008.066446)  can0  18F08880   [8]  7D 7D 7D 7D 00 00 00 00
 (008.067696)  can0  18FF1081   [8]  69 17 00 00 FF 24 57 5A
 (008.081435)  can0  18F08780   [8]  01 13 4B 7E 7D 00 00 00
 (008.084377)  can0  1CFF18FE   [8]  35 01 00 77 44 16 38 00
 (008.091706)  can0  0CFF1D80   [8]  04 00 00 00 00 00 00 00
 (008.091708)  can0  1CFF18FE   [8]  31 01 00 6E 00 00 00 C3
 (008.101784)  can0  1CFF18FE   [8]  61 06 00 0A 00 00 00 00
 (008.116412)  can0  18F08880   [8]  7D 7D 7D 7D 00 00 00 00
 (008.121691)  can0  18FAB580   [8]  10 40 00 00 00 00 00 00
 (008.125362)  can0  18FF1181   [8]  C8 64 64 02 00 00 00 00
 (008.134414)  can0  1CFF18FE   [8]  35 01 00 78 00 00 00 01
 (008.135624)  can0  18FF1184   [8]  C8 64 64 02 00 00 00 00
 (008.137829)  can0  18FF1084   [8]  73 17 00 00 FF 24 57 5A
 (008.141782)  can0  0CFF1D80   [8]  04 00 00 00 00 00 00 00
 (008.141783)  can0  1CFF18FE   [8]  31 01 00 6F 00 00 00 00
 (008.144817)  can0  1CFF18FE   [8]  61 06 00 0D 1C FF 17 FE
 (008.166874)  can0  18F08880   [8]  7D 7D 7D 7D 00 00 00 00
 (008.166874)  can0  18FF1081   [8]  69 17 00 00 FF 24 57 5A
 (008.181410)  can0  18F08780   [8]  01 09 4B 7E 7D 00 00 00
 (008.184658)  can0  1CFF18FE   [8]  35 01 00 79 00 00 00 00
 (008.191832)  can0  0CFF1D80   [8]  04 00 00 00 00 00 00 00
 (008.191833)  can0  1CFF18FE   [8]  31 01 00 70 41 C8 00 00
 (008.202914)  can0  1CFF18FE   [8]  61 06 00 0B 00 07 A1 20
 (008.216786)  can0  18F08880   [8]  7D 7D 7D 7D 00 00 00 00
 (008.221837)  can0  18FAB580   [8]  10 40 00 00 00 00 00 00
 (008.225600)  can0  18FF1181   [8]  C8 64 64 02 00 00 00 00
 (008.234403)  can0  1CFF18FE   [8]  35 01 00 7A 41 BA 40 00
 (008.234405)  can0  18FF1184   [8]  C8 64 64 02 00 00 00 00
 (008.237867)  can0  18FF1084   [8]  7D 17 00 00 FF 24 57 5A
 (008.241819)  can0  0CFF1D80   [8]  04 00 00 00 00 00 00 00
 (008.241820)  can0  1CFF18FE   [8]  31 01 00 71 41 D0 00 00
 (008.246199)  can0  1CFF18FE   [8]  61 06 00 0E 18 F0 87 80
 (008.260676)  can0  18FF1280   [8]  05 00 00 00 00 00 00 00
 (008.266704)  can0  18F08880   [8]  7D 7D 7D 7D 00 00 00 00
 (008.266706)  can0  18FF1081   [8]  6B 17 00 00 FF 24 57 5A
 (008.281655)  can0  18F08780   [8]  01 29 4B 7E 7D 00 00 00
 (008.284341)  can0  1CFF18FE   [8]  35 01 00 7B 41 D0 00 00
 (008.291834)  can0  0CFF1D80   [8]  04 00 00 00 00 00 00 00
 (008.291835)  can0  1CFF18FE   [8]  31 01 00 72 00 00 00 00
 (008.304111)  can0  1CFF18FE   [8]  61 06 00 0C 1C FF 18 FE
 (008.316739)  can0  18F08880   [8]  7D 7D 7D 7D 00 00 00 00
 (008.321804)  can0  18FAB580   [8]  10 40 00 00 00 00 00 00
 (008.325629)  can0  18FF1181   [8]  C8 64 64 02 00 00 00 00
 (008.334420)  can0  1CFF18FE   [8]  35 01 00 7C 00 00 00 00
 (008.334422)  can0  18FF1184   [8]  C8 64 64 02 00 00 00 00
 (008.337878)  can0  18FF1084   [8]  7C 17 00 00 FF 24 57 5A
 (008.341858)  can0  0CFF1D80   [8]  04 00 00 00 00 00 00 00
 (008.341860)  can0  1CFF18FE   [8]  31 01 00 73 00 00 00 02
 (008.347864)  can0  1CFF18FE   [8]  61 06 00 0F 18 FF 1B FE
 (008.366664)  can0  18F08880   [8]  7D 7D 7D 7D 00 00 00 00
 (008.367874)  can0  18FF1081   [8]  6A 17 00 00 FF 24 57 5A
 (008.381730)  can0  18F08780   [8]  01 26 4B 7E 7D 00 00 00
 (008.384336)  can0  1CFF18FE   [8]  35 01 00 7D 00 00 00 00
 (008.391687)  can0  0CFF1D80   [8]  04 00 00 00 00 00 00 00
 (008.392815)  can0  1CFF18FE   [8]  31 01 00 74 00 00 00 02
 (008.404974)  can0  1CFF18FE   [8]  61 06 00 0D 1C FF 17 FE
 (008.416907)  can0  18F08880   [8]  7D 7D 7D 7D 00 00 00 00
 (008.421611)  can0  18FAB580   [8]  10 40 00 00 00 00 00 00
 (008.425739)  can0  18FF1181   [8]  C8 64 64 02 00 00 00 00
 (008.434741)  can0  1CFF18FE   [8]  35 01 00 7E 01 30 59 EA
 (008.434743)  can0  18FF1184   [8]  C8 64 64 02 00 00 00 00
 (008.437432)  can0  18FF1084   [8]  75 17 00 00 FF 24 57 5A
 (008.441703)  can0  0CFF1D80   [8]  04 00 00 00 00 00 00 00
 (008.442806)  can0  1CFF18FE   [8]  31 01 00 75 00 00 00 00
 (008.449748)  can0  1CFF18FE   [8]  61 06 00 10 18 FF 19 FE
 (008.466850)  can0  18F08880   [8]  7D 7D 7D 7D 00 00 00 00
 (008.466853)  can0  18FF1081   [8]  6C 17 00 00 FF 24 57 5A
 (008.481660)  can0  18F08780   [8]  01 10 4B 7D 7D 00 00 00
 (008.484551)  can0  1CFF18FE   [8]  35 01 00 7F 00 00 00 00
 (008.491723)  can0  0CFF1D80   [8]  04 00 00 00 00 00 00 00
 (008.492806)  can0  1CFF18FE   [8]  31 01 00 76 41 EB 85 1D
 (008.505696)  can0  1CFF18FE   [8]  61 06 00 0E 18 F0 87 80
 (008.516899)  can0  18F08880   [8]  7D 7D 7D 7D 00 00 00 00
 (008.521671)  can0  18FAB580   [8]  10 40 00 00 00 00 00 00
 (008.525791)  can0  18FF1181   [8]  C8 64 64 02 00 00 00 00
 (008.534788)  can0  1CFF18FE   [8]  35 01 00 80 00 00 00 00
 (008.534791)  can0  18FF1184   [8]  C8 64 64 02 00 00 00 00
 (008.537409)  can0  18FF1084   [8]  78 17 00 00 FF 24 57 5A
 (008.541706)  can0  0CFF1D80   [8]  04 00 00 00 00 00 00 00
 (008.542778)  can0  1CFF18FE   [8]  31 01 00 77 44 16 33 33
 (008.551319)  can0  1CFF18FE   [8]  61 06 00 11 18 FF 1A FE
 (008.566383)  can0  18F08880   [8]  7D 7D 7D 7D 00 00 00 00
 (008.567649)  can0  18FF1081   [8]  6B 17 00 00 FF 24 57 5A
 (008.581694)  can0  18F08780   [8]  01 19 4B 7E 7D 00 00 00
 (008.584603)  can0  1CFF18FE   [8]  35 01 00 81 3F 52 F0 00
 (008.591456)  can0  0CFF1D80   [8]  04 00 00 00 00 00 00 00
 (008.592652)  can0  1CFF18FE   [8]  31 01 00 78 00 00 00 01
 (008.607227)  can0  1CFF18FE   [8]  61 06 00 0F 18 FF 1B FE
 (008.616664)  can0  18F08880   [8]  7D 7D 7D 7D 00 00 00 00
 (008.621409)  can0  18FAB580   [8]  10 40 00 00 00 00 00 00
 (008.625622)  can0  18FF1181   [8]  C8 64 64 02 00 00 00 00
 (008.634605)  can0  1CFF18FE   [8]  35 01 00 82 3F 52 F0 00
 (008.635741)  can0  18FF1184   [8]  C8 64 64 02 00 00 00 00
 (008.637345)  can0  18FF1084   [8]  75 17 00 00 FF 24 57 5A
 (008.641471)  can0  0CFF1D80   [8]  04 00 00 00 00 00 00 00
 (008.642572)  can0  1CFF18FE   [8]  31 01 00 79 00 00 00 00
 (008.652845)  can0  1CFF18FE   [8]  61 06 00 12 00 00 06 1B
 (008.666676)  can0  18F08880   [8]  7D 7D 7D 7D 00 00 00 00
 (008.667821)  can0  18FF1081   [8]  6B 17 00 00 FF 24 57 5A
 (008.681378)  can0  18F08780   [8]  01 10 4B 7E 7D 00 00 00
 (008.684319)  can0  1CFF18FE   [8]  35 01 00 83 00 00 00 03
 (008.691672)  can0  0CFF1D80   [8]  04 00 00 00 00 00 00 00
 (008.692807)  can0  1CFF18FE   [8]  31 01 00 7A 41 BE 80 00
 (008.708287)  can0  1CFF18FE   [8]  61 06 00 10 18 FF 19 FE
 (008.716712)  can0  18F08880   [8]  7D 7D 7D 7D 00 00 00 00
 (008.721384)  can0  18FAB580   [8]  10 40 00 00 00 00 00 00
 (008.725457)  can0  18FF1181   [8]  C8 64 64 02 00 00 00 00
 (008.734590)  can0  1CFF18FE   [8]  35 01 00 84 3F 80 80 00
 (008.735743)  can0  18FF1184   [8]  C8 64 64 02 00 00 00 00
 (008.737367)  can0  18FF1084   [8]  70 17 00 00 FF 24 57 5A
 (008.741472)  can0  0CFF1D80   [8]  04 00 00 00 00 00 00 00
 (008.742595)  can0  1CFF18FE   [8]  31 01 00 7B 41 D0 00 00
 (008.753975)  can0  1CFF18FE   [8]  61 06 00 13 00 00 03 E8
 (008.760456)  can0  18FF1280   [8]  05 00 00 00 00 00 00 00
 (008.766466)  can0  18F08880   [8]  7D 7D 7D 7D 00 00 00 00
 (008.766467)  can0  18FF1081   [8]  6A 17 00 00 FF 24 57 5A
 (008.781871)  can0  18F08780   [8]  01 00 4B 7E 7D 00 00 00
 (008.784315)  can0  1CFF18FE   [8]  35 01 00 85 3F 62 00 00
 (008.791495)  can0  0CFF1D80   [8]  04 00 00 00 00 00 00 00
 (008.791497)  can0  1CFF18FE   [8]  31 01 00 7C 00 00 00 00
 (008.809731)  can0  1CFF18FE   [8]  61 06 00 11 18 FF 1A FE
 (008.816417)  can0  18F08880   [8]  7D 7D 7D 7D 00 00 00 00
 (008.821419)  can0  18FAB580   [8]  10 40 00 00 00 00 00 00
 (008.825676)  can0  18FF1181   [8]  C8 64 64 02 00 00 00 00
 (008.834338)  can0  1CFF18FE   [8]  35 01 00 86 00 00 01 00
 (008.835582)  can0  18FF1184   [8]  C8 64 64 02 00 00 00 00
 (008.837693)  can0  18FF1084   [8]  73 17 00 00 FF 24 57 5A
 (008.841518)  can0  0CFF1D80   [8]  04 00 00 00 00 00 00 00
 (008.841520)  can0  1CFF18FE   [8]  31 01 00 7D 00 00 00 00
 (008.855720)  can0  1CFF18FE   [8]  61 06 00 14 00 00 01 2D
 (008.866421)  can0  18F08880   [8]  7D 7D 7D 7D 00 00 00 00
 (008.867673)  can0  18FF1081   [8]  6A 17 00 00 FF 24 57 5A
 (008.881677)  can0  18F08780   [8]  01 09 4B 7E 7D 00 00 00
 (008.884457)  can0  1CFF18FE   [8]  35 01 00 87 41 D0 00 00
 (008.891841)  can0  0CFF1D80   [8]  04 00 00 00 00 00 00 00
 (008.892773)  can0  1CFF18FE   [8]  31 01 00 7E 00 63 33 94
 (008.910877)  can0  1CFF18FE   [8]  61 06 00 12 00 00 06 1B
 (008.916397)  can0  18F08880   [8]  7D 7D 7D 7D 00 00 00 00
 (008.921487)  can0  18FAB580   [8]  10 40 00 00 00 00 00 00
 (008.925714)  can0  18FF1181   [8]  C8 64 64 02 00 00 00 00
 (008.934370)  can0  1CFF18FE   [8]  35 01 00 88 00 00 00 BC
 (008.935599)  can0  18FF1184   [8]  C8 64 64 02 00 00 00 00
 (008.937725)  can0  18FF1084   [8]  6F 17 00 00 FF 24 57 5A
 (008.941727)  can0  0CFF1D80   [8]  04 00 00 00 00 00 00 00
 (008.941728)  can0  1CFF18FE   [8]  31 01 00 7F 00 00 00 00
 (008.957699)  can0  1CFF18FE   [8]  61 06 00 15 00 00 00 87
 (008.966456)  can0  18F08880   [8]  7D 7D 7D 7D 00 00 00 00
 (008.967408)  can0  18FF1081   [8]  6B 17 00 00 FF 24 57 5A
 (008.981672)  can0  18F08780   [8]  01 FC 4A 7E 7D 00 00 00
 (008.984401)  can0  1CFF18FE   [8]  35 01 00 89 00 00 FE 00
 (008.991420)  can0  0CFF1D80   [8]  04 00 00 00 00 00 00 00
 (008.991422)  can0  1CFF18FE   [8]  31 01 00 80 00 00 00 00
 (009.012653)  can0  1CFF18FE   [8]  61 06 00 13 00 00 03 E8
 (009.016413)  can0  18F08880   [8]  7D 7D 7D 7D 00 00 00 00
 (009.021386)  can0  18FAB580   [8]  10 40 00 00 00 00 00 00
 (009.025834)  can0  18FF1181   [8]  C8 64 64 02 00 00 00 00
 (009.034359)  can0  1CFF18FE   [8]  35 01 00 8A 00 00 02 06
 (009.034361)  can0  18FF1184   [8]  C8 64 64 02 00 00 00 00
 (009.037864)  can0  18FF1084   [8]  74 17 00 00 FF 24 57 5A
 (009.041456)  can0  0CFF1D80   [8]  04 00 00 00 00 00 00 00
 (009.042418)  can0  1CFF18FE   [8]  31 01 00 81 3F 52 F0 00
 (009.058652)  can0  1CFF18FE   [8]  61 06 00 16 00 00 01 2D
 (009.066460)  can0  18F08880   [8]  7D 7D 7D 7D 00 00 00 00
 (009.066461)  can0  18FF1081   [8]  69 17 00 00 FF 24 57 5A
 (009.081825)  can0  18F08780   [8]  01 0C 4B 7E 7D 00 00 00
 (009.084377)  can0  1CFF18FE   [8]  35 01 00 8B 00 00 04 00
 (009.091479)  can0  0CFF1D80   [8]  04 00 00 00 00 00 00 00
 (009.092626)  can0  1CFF18FE   [8]  31 01 00 82 3F 52 F0 00
 (009.114850)  can0  1CFF18FE   [8]  61 06 00 14 00 00 01 2D
 (009.116461)  can0  18F08880   [8]  7D 7D 7D 7D 00 00 00 00
 (009.121400)  can0  18FAB580   [8]  10 40 00 00 00 00 00 00
 (009.125774)  can0  18FF1181   [8]  C8 64 64 02 00 00 00 00
 (009.134364)  can0  1CFF18FE   [8]  35 01 00 8C 00 00 FE 00
 (009.135615)  can0  18FF1184   [8]  C8 64 64 02 00 00 00 00
 (009.137703)  can0  18FF1084   [8]  7A 17 00 00 FF 24 57 5A
 (009.141426)  can0  0CFF1D80   [8]  04 00 00 00 00 00 00 00
 (009.142411)  can0  1CFF18FE   [8]  31 01 00 83 00 00 00 03
 (009.158974)  can0  1CFF18FE   [8]  61 06 00 17 00 00 07 D0
 (009.166727)  can0  18F08880   [8]  7D 7D 7D 7D 00 00 00 00
 (009.166729)  can0  18FF1081   [8]  6B 17 00 00 FF 24 57 5A
 (009.181366)  can0  18F08780   [8]  01 20 4B 7E 7D 00 00 00
 (009.184369)  can0  1CFF18FE   [8]  35 01 00 8D 00 00 06 16
 (009.191484)  can0  0CFF1D80   [8]  04 00 00 00 00 00 00 00
 (009.192446)  can0  1CFF18FE   [8]  31 01 00 84 3F 82 00 00
 (009.199445)  can0  0CF0905B   [8]  00 00 00 00 E0 2E 00 00
 (009.199566)  can0  0CFE5A5B   [8]  00 00 00 00 00 00 00 00
 (009.200238)  can0  18FEF15B   [8]  00 00 00 00 00 00 00 00
 (009.200319)  can0  18FAB45B   [8]  C8 32 00 00 00 00 00 00
 (009.200849)  can0  18FAB75B   [8]  00 00 00 00 80 0C 00 00
 (009.200971)  can0  1853805B   [8]  00 00 00 00 00 00 00 00
 (009.201321)  can0  18FCC25B   [8]  00 00 00 00 7D 00 00 00
 (009.216034)  can0  1CFF18FE   [8]  61 06 00 15 00 00 00 87
 (009.216035)  can0  18F08880   [8]  7D 7D 7D 7D 00 00 00 00
 (009.219541)  can0  0CF0905B   [8]  00 00 00 00 E0 2E 00 00
 (009.220898)  can0  18FAB75B   [8]  00 00 00 00 80 0C 00 00
 (009.221746)  can0  18FAB580   [8]  10 40 00 00 00 00 00 00
 (009.225759)  can0  18FF1181   [8]  C8 64 64 02 00 00 00 00
 (009.234356)  can0  1CFF18FE   [8]  35 01 00 8E 00 00 00 00
 (009.234357)  can0  18FF1184   [8]  C8 64 64 02 00 00 00 00
 (009.237885)  can0  18FF1084   [8]  76 17 00 00 FF 64 57 5A
 (009.239665)  can0  0CF0905B   [8]  00 00 00 00 E0 2E 00 00
 (009.240967)  can0  18FAB75B   [8]  00 00 00 00 80 0C 00 00
 (009.241736)  can0  0CFF1D80   [8]  06 00 00 00 00 00 00 00
 (009.241737)  can0  1CFF18FE   [8]  31 01 00 85 3F 82 00 00
 (009.245614)  can0  1CFF17FE   [8]  31 E5 04 FF 00 6C 00 01
 (009.251411)  can0  1CFF17FE   [8]  35 E5 05 3E 00 6C 00 01
 (009.259824)  can0  0CF0905B   [8]  00 00 00 00 E0 2E 00 00
 (009.260374)  can0  18FF1280   [8]  05 00 00 00 00 00 00 00
 (009.260374)  can0  1CFF18FE   [8]  61 07 00 00 00 00 00 05
 (009.261003)  can0  18FAB75B   [8]  00 00 00 00 80 0C 00 00
 (009.266404)  can0  18F08880   [8]  7D 7D 7D 7D 00 00 00 00
 (009.267444)  can0  18FF1081   [8]  6B 17 00 00 FF 64 57 5A
 (009.279835)  can0  0CF0905B   [8]  00 00 00 00 E0 2E 00 00
 (009.281028)  can0  18FAB75B   [8]  00 00 00 00 80 0C 00 00
 (009.281653)  can0  18F08780   [8]  01 13 4B 7E 7D 00 00 00
 (009.284522)  can0  1CFF18FE   [8]  35 01 00 8F 00 00 00 00
 (009.291475)  can0  0CFF1D80   [8]  06 00 00 00 00 00 00 00
 (009.291476)  can0  1CFF18FE   [8]  31 01 00 86 00 00 01 00
 (009.299639)  can0  0CFE5A5B   [8]  00 00 00 00 00 00 00 00
 (009.299774)  can0  0CF0905B   [8]  00 00 00 00 E0 2E 00 00
 (009.300262)  can0  18FEF15B   [8]  00 00 00 00 00 00 00 00
 (009.301025)  can0  1853805B   [8]  00 00 00 00 00 00 00 00
 (009.301027)  can0  18FAB75B   [8]  00 00 00 00 80 0C 00 00
 (009.316688)  can0  18F08880   [8]  7D 7D 7D 7D 00 00 00 00
 (009.316689)  can0  1CFF18FE   [8]  61 06 00 16 00 00 01 2D
 (009.319867)  can0  0CF0905B   [8]  00 00 00 00 E0 2E 00 00
 (009.321088)  can0  18FAB75B   [8]  00 00 00 00 80 0C 00 00
 (009.321761)  can0  18FAB580   [8]  10 40 00 00 00 00 00 00
 (009.325685)  can0  18FF1181   [8]  96 64 64 03 00 00 00 00
 (009.334430)  can0  1CFF18FE   [8]  35 01 00 90 00 00 00 00
 (009.334431)  can0  18FF1184   [8]  C8 64 64 02 00 00 00 00
 (009.337873)  can0  18FF1084   [8]  75 17 00 00 FF 64 57 5A
 (009.339890)  can0  0CF0905B   [8]  00 00 00 00 E0 2E 00 00
 (009.341103)  can0  18FAB75B   [8]  00 00 00 00 80 0C 00 00
 (009.341773)  can0  0CFF1D80   [8]  06 00 00 00 00 00 00 00
 (009.343286)  can0  1CFF18FE   [8]  31 01 00 87 41 C8 00 00
 (009.345631)  can0  1CFF17FE   [8]  31 E5 05 6D 00 6C 00 1B
 (009.351474)  can0  1CFF17FE   [8]  35 E5 05 BE 00 6C 00 1B
 (009.359932)  can0  0CF0905B   [8]  00 00 00 00 E0 2E 00 00
 (009.361020)  can0  1CFF18FE   [8]  61 07 00 01 42 02 47 AE
 (009.361232)  can0  18FAB75B   [8]  00 00 00 00 80 0C 00 00
 (009.366871)  can0  18F08880   [8]  BB BB BB BB 00 00 00 00
 (009.366873)  can0  18FF1081   [8]  68 17 00 00 FF 64 57 5A
 (009.379946)  can0  0CF0905B   [8]  00 00 00 00 E0 2E 00 00
 (009.381260)  can0  18FAB75B   [8]  00 00 00 00 80 0C 00 00
 (009.381512)  can0  18F08780   [8]  03 10 4B 7E 7D 00 00 00
 (009.384761)  can0  1CFF18FE   [8]  35 01 00 91 00 00 00 00
 (009.391680)  can0  0CFF1D80   [8]  06 00 00 00 00 00 00 00
 (009.391681)  can0  1CFF18FE   [8]  31 01 00 88 00 00 00 79
 (009.395589)  can0  1CFF17FE   [8]  31 E5 05 6D 00 6C 00 1C
 (009.399661)  can0  0CFE5A5B   [8]  00 00 00 00 00 00 00 00
 (009.399911)  can0  0CF0905B   [8]  00 00 00 00 E0 2E 00 00
 (009.400244)  can0  18FEF15B   [8]  00 00 00 00 00 00 00 00
 (009.401098)  can0  1853805B   [8]  00 00 00 00 00 00 00 00
 (009.401269)  can0  18FAB75B   [8]  00 00 00 00 80 0C 00 00
 (009.401576)  can0  1CFF17FE   [8]  35 E5 05 BE 00 6C 00 1C
 (009.416753)  can0  18F08880   [8]  BB BB BB BB 00 00 00 00
 (009.418036)  can0  1CFF18FE   [8]  61 06 00 17 00 00 07 D0
 (009.420044)  can0  0CF0905B   [8]  00 00 00 00 E0 2E 00 00
 (009.421312)  can0  18FAB75B   [8]  00 00 00 00 80 0C 00 00
 (009.421874)  can0  18FAB580   [8]  10 40 00 00 00 00 00 00
 (009.425419)  can0  18FF1181   [8]  96 64 64 03 00 00 00 00
 (009.434796)  can0  1CFF18FE   [8]  35 01 00 92 00 00 00 00
 (009.434797)  can0  18FF1184   [8]  96 64 64 03 00 00 00 00
 (009.437460)  can0  18FF1084   [8]  70 17 00 00 FF 64 57 5A
 (009.440133)  can0  0CF0905B   [8]  00 00 00 00 E0 2E 00 00
 (009.441338)  can0  18FAB75B   [8]  00 00 00 00 80 0C 00 00
 (009.441875)  can0  0CFF1D80   [8]  06 00 00 00 00 00 00 00
 (009.443437)  can0  1CFF18FE   [8]  31 01 00 89 00 00 FE 00
 (009.460218)  can0  0CF0905B   [8]  00 00 00 00 E0 2E 00 00
 (009.461375)  can0  18FAB75B   [8]  00 00 00 00 80 0C 00 00
 (009.462441)  can0  1CFF18FE   [8]  61 07 00 02 41 FA 0B 9D
 (009.466718)  can0  18F08880   [8]  BB BB BB BB 00 00 00 00
 (009.466720)  can0  18FF1081   [8]  68 17 00 00 FF 64 57 5A
 (009.480263)  can0  0CF0905B   [8]  00 00 00 00 E0 2E 00 00
 (009.481331)  can0  18F08780   [8]  03 00 4B 7D 7D 00 00 00
 (009.481408)  can0  18FAB75B   [8]  00 00 00 00 80 0C 00 00
 (009.484354)  can0  1CFF18FE   [8]  35 01 00 93 00 00 00 00
 (009.491410)  can0  0CFF1D80   [8]  06 00 00 00 00 00 00 00
 (009.493404)  can0  1CFF18FE   [8]  31 01 00 8A 00 00 02 06
 (009.499747)  can0  0CFE5A5B   [8]  00 00 00 00 00 00 00 00
 (009.500231)  can0  0CF0905B   [8]  00 00 00 00 E0 2E 00 00
 (009.500274)  can0  18FEF15B   [8]  00 00 00 00 00 00 00 00
 (009.501113)  can0  1853805B   [8]  00 00 00 00 00 00 00 00
 (009.501438)  can0  18FAB75B   [8]  00 00 00 00 80 0C 00 00
 (009.516706)  can0  18F08880   [8]  FA FA FA FA 00 00 00 00
 (009.518795)  can0  1CFF18FE   [8]  61 07 00 00 00 00 00 05
 (009.520376)  can0  0CF0905B   [8]  00 00 00 00 E0 2E 00 00
 (009.521458)  can0  18FAB75B   [8]  00 00 00 00 80 0C 00 00
 (009.521951)  can0  18FAB580   [8]  10 40 00 00 00 00 00 00
 (009.525383)  can0  18FF1181   [8]  64 64 64 03 00 00 00 00
 (009.534777)  can0  1CFF18FE   [8]  35 01 00 94 00 00 00 00
 (009.534778)  can0  18FF1184   [8]  64 64 64 03 00 00 00 00
 (009.537427)  can0  18FF1084   [8]  82 17 00 00 FF 64 57 5A
 (009.540483)  can0  0CF0905B   [8]  00 00 00 00 E0 2E 00 00
 (009.541574)  can0  18FAB75B   [8]  00 00 00 00 80 0C 00 00
 (009.541778)  can0  0CFF1D80   [8]  06 00 00 00 00 00 00 00
 (009.543608)  can0  1CFF18FE   [8]  31 01 00 8B 00 00 04 00
 (009.560592)  can0  0CF0905B   [8]  00 00 00 00 E0 2E 00 00
 (009.561611)  can0  18FAB75B   [8]  00 00 00 00 80 0C 00 00
 (009.564426)  can0  1CFF18FE   [8]  61 07 00 03 00 00 00 00
 (009.566636)  can0  18F08880   [8]  FA FA FA FA 00 00 00 00
 (009.567855)  can0  18FF1081   [8]  6B 17 00 00 FF 64 57 5A
 (009.580656)  can0  0CF0905B   [8]  00 00 00 00 E0 2E 00 00
 (009.581329)  can0  18F08780   [8]  03 39 4B 7E 7D 00 00 00
 (009.581590)  can0  18FAB75B   [8]  00 00 00 00 80 0C 00 00
 (009.584290)  can0  1CFF18FE   [8]  35 01 00 95 00 00 00 28
 (009.591822)  can0  0CFF1D80   [8]  06 00 00 00 00 00 00 00
 (009.593347)  can0  1CFF18FE   [8]  31 01 00 8C 00 00 FE 00
 (009.599750)  can0  0CFE5A5B   [8]  00 00 00 00 00 00 00 00
 (009.600289)  can0  18FEF15B   [8]  00 00 00 00 00 00 00 00
 (009.600678)  can0  0CF0905B   [8]  00 00 00 00 E0 2E 00 00
 (009.601080)  can0  1853805B   [8]  00 00 00 00 00 00 00 00
 (009.601600)  can0  18FAB75B   [8]  00 00 00 00 80 0C 00 00
 (009.616693)  can0  18F08880   [8]  FA FA FA FA 00 00 00 00
 (009.619625)  can0  1CFF18FE   [8]  61 07 00 01 41 EB 47 AD
 (009.620772)  can0  0CF0905B   [8]  00 00 00 00 E0 2E 00 00
 (009.621581)  can0  18FAB580   [8]  10 40 00 00 00 00 00 00
 (009.621706)  can0  18FAB75B   [8]  00 00 00 00 80 0C 00 00
 (009.625389)  can0  18FF1181   [8]  64 64 64 03 00 00 00 00
 (009.634743)  can0  1CFF18FE   [8]  35 01 00 96 00 00 00 00
 (009.634744)  can0  18FF1184   [8]  64 64 64 03 00 00 00 00
 (009.637404)  can0  18FF1084   [8]  75 17 00 00 FF 64 57 5A
 (009.640774)  can0  0CF0905B   [8]  00 00 00 00 E0 2E 00 00
 (009.641589)  can0  0CFF1D80   [8]  06 00 00 00 00 00 00 00
 (009.641719)  can0  18FAB75B   [8]  00 00 00 00 80 0C 00 00
 (009.644059)  can0  1CFF18FE   [8]  31 01 00 8D 00 00 06 16
 (009.660857)  can0  0CF0905B   [8]  00 00 00 00 E0 2E 00 00
 (009.661740)  can0  18FAB75B   [8]  00 00 00 00 80 0C 00 00
 (009.665137)  can0  1CFF18FE   [8]  61 07 00 04 00 00 00 00
 (009.667694)  can0  18F08880   [8]  FA FA FA FA 00 00 00 00
 (009.667695)  can0  18FF1081   [8]  69 17 00 00 FF 64 57 5A
 (009.680859)  can0  0CF0905B   [8]  00 00 00 00 E0 2E 00 00
 (009.681406)  can0  18F08780   [8]  03 10 4B 7E 7D 00 00 00
 (009.681787)  can0  18FAB75B   [8]  00 00 00 00 80 0C 00 00
